!Agilent Technologies,E8363B,SG43030126,A.07.50.67
!Agilent E8363B: A.07.50.67
!Date: Friday, August 05, 1988 10:30:09
!Correction: S11(Full 2 Port(1,2)) 
!S21(Full 2 Port(1,2)) 
!S12(Full 2 Port(1,2)) 
!S22(Full 2 Port(1,2)) 
!S2P File: Measurements: S11, S21, S12, S22:
# Hz S  dB   R 50
10000000 9.777052e-001 -7.204936e+000 -1.971852e+001 -3.670335e+001 -4.522810e+001 -3.408714e+001 -2.864678e+001 9.918446e+001
99950000 3.789152e-001 -8.485305e+001 -2.876941e+001 1.780851e+002 -5.762472e+001 -2.530268e+001 -4.148294e+001 1.553829e+002
189900000 -9.860334e-001 -1.505538e+002 -3.260428e+001 -1.374324e+002 -6.050898e+001 -9.476265e+001 -3.950680e+001 1.572013e+002
279850000 -1.567634e+000 1.640356e+002 -3.108931e+001 -1.256329e+002 -7.298042e+001 -2.568561e+001 -3.940601e+001 1.573091e+002
369800000 -1.729394e+000 1.296031e+002 -4.006267e+001 -4.652452e+001 -6.391782e+001 -3.487709e+001 -3.941407e+001 1.536215e+002
459750000 -1.981771e+000 9.745516e+001 -2.998365e+001 6.781165e+001 -8.319923e+001 -3.067497e+001 -3.985740e+001 1.556935e+002
549700000 -2.056315e+000 7.255045e+001 -2.237494e+001 -5.343906e+000 -7.061059e+001 1.425522e+002 -4.073991e+001 1.563164e+002
639650000 -3.056240e+000 4.988218e+001 -1.637290e+001 -6.759848e+001 -6.215405e+001 -8.533848e+001 -3.983490e+001 1.568372e+002
729600000 -3.918015e+000 3.057634e+001 -1.113113e+001 -1.262820e+002 -6.569338e+001 1.498794e+002 -3.942855e+001 1.549849e+002
819550000 -5.100094e+000 1.009687e+001 -8.506637e+000 1.775081e+002 -7.933263e+001 2.280792e+001 -3.910345e+001 1.526528e+002
909500000 -6.112657e+000 -1.578236e+000 -6.569351e+000 1.258335e+002 -7.349639e+001 -4.224496e+001 -3.975609e+001 1.438828e+002
999450000 -6.843471e+000 -7.323035e+000 -5.121500e+000 8.106663e+001 -6.652573e+001 -6.035013e+001 -3.943535e+001 1.434602e+002
1089400000 -7.585460e+000 -1.957136e+001 -4.095891e+000 3.631322e+001 -7.212296e+001 -3.379010e+001 -3.904762e+001 1.364932e+002
1179350000 -8.326905e+000 -2.484910e+001 -3.781286e+000 -6.208478e+000 -7.628464e+001 9.668438e+001 -3.889608e+001 1.377717e+002
1269300000 -8.676156e+000 -2.846855e+001 -3.395611e+000 -4.357080e+001 -7.123290e+001 1.186095e+002 -3.883721e+001 1.379678e+002
1359250000 -8.755936e+000 -3.811103e+001 -3.237619e+000 -8.052947e+001 -6.905215e+001 -1.398074e+002 -3.881777e+001 1.373436e+002
1449200000 -9.220279e+000 -4.200475e+001 -3.000834e+000 -1.155291e+002 -7.074453e+001 -6.279037e+000 -3.867632e+001 1.357157e+002
1539150000 -9.533990e+000 -4.716566e+001 -3.015452e+000 -1.505437e+002 -7.276974e+001 9.275166e+001 -3.841124e+001 1.364189e+002
1629100000 -9.555160e+000 -5.048672e+001 -2.883128e+000 1.757855e+002 -8.019019e+001 3.817876e+001 -3.876845e+001 1.314837e+002
1719050000 -9.489132e+000 -5.992919e+001 -2.840680e+000 1.451058e+002 -7.257131e+001 2.801162e+001 -3.826174e+001 1.324422e+002
1809000000 -9.302389e+000 -6.706074e+001 -2.657550e+000 1.132806e+002 -6.731998e+001 1.456304e+002 -3.817538e+001 1.299363e+002
1898950000 -9.667188e+000 -7.225621e+001 -2.847890e+000 8.392573e+001 -7.465912e+001 -1.637965e+002 -3.767582e+001 1.290857e+002
1988900000 -9.883873e+000 -7.554924e+001 -2.563544e+000 5.192367e+001 -6.495587e+001 2.798068e+001 -3.795361e+001 1.285694e+002
2078850000 -9.784412e+000 -8.327238e+001 -2.730988e+000 2.253438e+001 -7.576776e+001 -1.227886e+002 -3.696312e+001 1.255205e+002
2168800000 -1.013769e+001 -9.021101e+001 -2.827149e+000 -7.756061e+000 -6.569953e+001 1.091042e+002 -3.757917e+001 1.294123e+002
2258750000 -9.778269e+000 -9.612625e+001 -2.456913e+000 -3.584999e+001 -6.621132e+001 -1.434700e+002 -3.668950e+001 1.274272e+002
2348700000 -9.992058e+000 -1.002487e+002 -2.396321e+000 -6.593029e+001 -6.575147e+001 9.098064e+000 -3.691302e+001 1.283327e+002
2438650000 -9.825990e+000 -1.058706e+002 -2.320207e+000 -9.245690e+001 -7.564775e+001 -1.773583e+002 -3.697590e+001 1.262201e+002
2528600000 -1.061189e+001 -1.069886e+002 -1.986694e+000 -1.237042e+002 -6.855273e+001 1.392577e+002 -3.573516e+001 1.297085e+002
2618550000 -1.070831e+001 -1.174964e+002 -2.215411e+000 -1.494638e+002 -7.944819e+001 -1.342497e+002 -3.563646e+001 1.232099e+002
2708500000 -1.068989e+001 -1.215609e+002 -2.406340e+000 1.799747e+002 -7.096170e+001 1.660682e+002 -3.523950e+001 1.229359e+002
2798450000 -1.099140e+001 -1.273693e+002 -2.281115e+000 1.511039e+002 -6.370243e+001 4.664788e+000 -3.465219e+001 1.185386e+002
2888400000 -1.140557e+001 -1.305670e+002 -2.295751e+000 1.236812e+002 -7.009950e+001 5.857887e+001 -3.422812e+001 1.195288e+002
2978350000 -1.066604e+001 -1.396799e+002 -2.333765e+000 9.571807e+001 -6.966412e+001 -1.234847e+002 -3.401458e+001 1.143451e+002
3068300000 -1.115472e+001 -1.409506e+002 -2.060327e+000 6.768612e+001 -7.420590e+001 -7.399542e+000 -3.370168e+001 1.135940e+002
3158250000 -1.133579e+001 -1.481591e+002 -2.469291e+000 3.927840e+001 -6.883868e+001 -1.221714e+002 -3.418830e+001 1.098325e+002
3248200000 -1.129169e+001 -1.551593e+002 -2.206920e+000 1.185006e+001 -6.307647e+001 1.705722e+001 -3.326706e+001 1.083110e+002
3338150000 -1.159757e+001 -1.582556e+002 -2.184401e+000 -1.493219e+001 -7.396600e+001 -1.594768e+002 -3.341193e+001 1.069539e+002
3428100000 -1.172808e+001 -1.634129e+002 -2.179400e+000 -4.340378e+001 -7.159943e+001 -6.191122e+001 -3.258042e+001 1.012214e+002
3518050000 -1.233374e+001 -1.702402e+002 -2.374787e+000 -7.170345e+001 -7.130370e+001 -1.032161e+002 -3.274627e+001 1.073315e+002
3608000000 -1.249126e+001 -1.741770e+002 -2.311823e+000 -9.723402e+001 -6.613353e+001 4.722104e+001 -3.211814e+001 9.672689e+001
3697950000 -1.258738e+001 1.782605e+002 -2.317586e+000 -1.253843e+002 -6.435409e+001 -5.710124e+001 -3.229150e+001 9.873112e+001
3787900000 -1.167259e+001 1.723155e+002 -2.272417e+000 -1.538573e+002 -7.519077e+001 -6.566050e+000 -3.191243e+001 8.950318e+001
3877850000 -1.273541e+001 1.689646e+002 -2.454457e+000 -1.792552e+002 -7.172201e+001 -1.532454e+002 -3.178126e+001 9.096503e+001
3967800000 -1.224478e+001 1.659288e+002 -2.604671e+000 1.541778e+002 -8.020429e+001 -7.332480e+001 -3.182041e+001 8.786932e+001
4057750000 -1.347286e+001 1.552036e+002 -2.411101e+000 1.259143e+002 -6.652340e+001 -3.742852e+001 -2.970967e+001 8.449023e+001
4147700000 -1.303402e+001 1.511958e+002 -2.321074e+000 9.913477e+001 -6.611640e+001 -6.788004e+001 -2.952173e+001 7.940390e+001
4237650000 -1.410881e+001 1.460850e+002 -2.583476e+000 7.200304e+001 -7.189165e+001 1.225069e+002 -3.049755e+001 7.304650e+001
4327600000 -1.311142e+001 1.401486e+002 -2.381715e+000 4.554067e+001 -7.853442e+001 1.386903e+002 -3.033356e+001 6.678249e+001
4417550000 -1.457265e+001 1.326876e+002 -2.359906e+000 1.823160e+001 -7.176539e+001 7.636692e+001 -3.061683e+001 6.401445e+001
4507500000 -1.495817e+001 1.333550e+002 -2.363288e+000 -8.052632e+000 -7.621233e+001 -1.740198e+002 -3.050829e+001 6.252671e+001
4597450000 -1.532699e+001 1.252463e+002 -2.266730e+000 -3.499673e+001 -7.929897e+001 1.580847e+002 -3.055083e+001 5.708081e+001
4687400000 -1.636427e+001 1.242188e+002 -2.276940e+000 -6.313238e+001 -7.096886e+001 1.514155e+001 -3.093258e+001 5.660855e+001
4777350000 -1.646059e+001 1.173176e+002 -1.995934e+000 -8.967472e+001 -7.411978e+001 1.200187e+002 -3.112823e+001 4.922541e+001
4867300000 -1.685362e+001 1.149278e+002 -2.133499e+000 -1.161432e+002 -7.436299e+001 -2.621741e+001 -3.181771e+001 4.862928e+001
4957250000 -1.838675e+001 1.069708e+002 -2.138971e+000 -1.429786e+002 -7.038549e+001 1.536884e+002 -3.194671e+001 4.896255e+001
5047200000 -1.997745e+001 1.097248e+002 -2.231161e+000 -1.696895e+002 -7.153014e+001 4.269334e+001 -3.328292e+001 4.313541e+001
5137150000 -1.931966e+001 1.009349e+002 -2.241939e+000 1.623932e+002 -7.159671e+001 1.523421e+002 -3.277699e+001 4.248327e+001
5227100000 -1.933137e+001 1.088402e+002 -2.174201e+000 1.356346e+002 -8.302148e+001 7.422351e+001 -3.456831e+001 4.110298e+001
5317050000 -2.055504e+001 1.043135e+002 -2.114399e+000 1.096240e+002 -6.938261e+001 -7.504242e+001 -3.439201e+001 3.739968e+001
5407000000 -2.179675e+001 9.762896e+001 -2.558236e+000 8.172958e+001 -8.000749e+001 -6.767828e+001 -3.612303e+001 4.103997e+001
5496950000 -2.436934e+001 1.165435e+002 -2.278471e+000 5.519198e+001 -7.571238e+001 1.363698e+002 -3.578299e+001 3.515843e+001
5586900000 -2.270388e+001 1.110747e+002 -2.297487e+000 2.792320e+001 -6.837724e+001 1.715631e+002 -3.757243e+001 4.182842e+001
5676850000 -2.454225e+001 1.284902e+002 -2.366853e+000 2.188205e+000 -7.499765e+001 -3.860223e+001 -3.753939e+001 3.793982e+001
5766800000 -2.226828e+001 1.188144e+002 -2.358517e+000 -2.483999e+001 -6.859225e+001 7.250341e+001 -3.756493e+001 4.557647e+001
5856750000 -2.168522e+001 1.422599e+002 -2.451372e+000 -5.298250e+001 -7.331937e+001 4.662061e+001 -3.893242e+001 4.488977e+001
5946700000 -2.269590e+001 1.380311e+002 -2.424424e+000 -7.849421e+001 -6.923563e+001 1.579478e+002 -3.774797e+001 5.365277e+001
6036650000 -2.074075e+001 1.390040e+002 -2.486944e+000 -1.044884e+002 -7.800658e+001 1.582292e+002 -3.950086e+001 5.496503e+001
6126600000 -2.004455e+001 1.291366e+002 -2.286222e+000 -1.317681e+002 -7.668725e+001 5.792267e+001 -4.079741e+001 5.103825e+001
6216550000 -2.016155e+001 1.403325e+002 -2.322308e+000 -1.578282e+002 -7.334920e+001 1.424875e+002 -3.965301e+001 5.285243e+001
6306500000 -1.939953e+001 1.359917e+002 -2.318642e+000 1.737262e+002 -8.394168e+001 -1.117573e+002 -3.940579e+001 6.139283e+001
6396450000 -1.889536e+001 1.396181e+002 -2.036059e+000 1.483371e+002 -6.869055e+001 4.851386e+001 -4.016379e+001 5.939186e+001
6486400000 -1.873194e+001 1.247519e+002 -1.980650e+000 1.212588e+002 -6.654436e+001 5.824669e+001 -4.094015e+001 5.141234e+001
6576350000 -1.845072e+001 1.391040e+002 -2.059408e+000 9.423005e+001 -8.363032e+001 -1.536194e+002 -3.914219e+001 6.580771e+001
6666300000 -1.722590e+001 1.363524e+002 -1.982766e+000 6.815938e+001 -7.685895e+001 1.124884e+001 -4.303206e+001 5.929047e+001
6756250000 -1.706440e+001 1.316420e+002 -1.856271e+000 4.058077e+001 -6.571166e+001 -1.284221e+002 -4.036109e+001 5.937391e+001
6846200000 -1.694431e+001 1.279082e+002 -2.106722e+000 1.220670e+001 -7.267967e+001 -5.166949e+001 -4.499310e+001 5.365492e+001
6936150000 -1.536834e+001 1.283943e+002 -2.021473e+000 -1.569719e+001 -8.233444e+001 3.633658e+001 -4.222287e+001 4.776135e+001
7026100000 -1.481000e+001 1.221313e+002 -2.276921e+000 -4.363733e+001 -6.847913e+001 1.387416e+002 -4.573322e+001 5.906508e+001
7116050000 -1.574454e+001 1.169254e+002 -2.095080e+000 -6.913390e+001 -7.232727e+001 3.736147e+001 -4.643188e+001 4.462284e+001
7206000000 -1.480437e+001 1.139603e+002 -2.170291e+000 -9.808592e+001 -7.439796e+001 -3.639053e+001 -5.052715e+001 8.337777e+001
7295950000 -1.449144e+001 1.163770e+002 -2.296392e+000 -1.233824e+002 -7.110462e+001 1.066136e+002 -5.518193e+001 2.264354e+001
7385900000 -1.320110e+001 1.120267e+002 -2.164100e+000 -1.527852e+002 -7.749868e+001 -1.054058e+002 -4.883988e+001 1.443017e+002
7475850000 -1.341312e+001 1.067999e+002 -2.189660e+000 -1.789607e+002 -7.527740e+001 -1.215299e+002 -5.020612e+001 -1.369381e+002
7565800000 -1.281997e+001 1.031046e+002 -2.211224e+000 1.522746e+002 -7.994197e+001 -4.984155e+001 -4.490277e+001 -1.711405e+002
7655750000 -1.284418e+001 9.794653e+001 -2.217274e+000 1.266230e+002 -7.082906e+001 -1.317455e+002 -4.227038e+001 -1.507491e+002
7745700000 -1.260391e+001 9.570293e+001 -2.395401e+000 9.845763e+001 -7.263963e+001 1.738999e+002 -3.868470e+001 -1.627084e+002
7835650000 -1.200456e+001 9.181050e+001 -2.387473e+000 7.165479e+001 -6.379470e+001 -2.322341e+001 -3.768867e+001 -1.549602e+002
7925600000 -1.139901e+001 8.867982e+001 -2.350940e+000 4.397377e+001 -6.559186e+001 1.353595e+002 -3.552979e+001 -1.713400e+002
8015550000 -1.148170e+001 8.303161e+001 -2.565773e+000 1.631573e+001 -7.170719e+001 -3.691770e+001 -3.377227e+001 -1.639390e+002
8105500000 -1.114586e+001 8.285587e+001 -2.676977e+000 -1.058043e+001 -7.780077e+001 8.516805e+001 -3.278087e+001 -1.773096e+002
8195450000 -1.083806e+001 7.749114e+001 -2.769046e+000 -3.798014e+001 -7.057155e+001 6.480246e+001 -3.097305e+001 -1.749912e+002
8285400000 -1.048977e+001 7.264919e+001 -2.814129e+000 -6.550819e+001 -8.410746e+001 -3.509132e+001 -3.076093e+001 1.770928e+002
8375350000 -1.080517e+001 6.885014e+001 -2.933056e+000 -9.256775e+001 -7.568057e+001 -3.471997e+001 -2.894956e+001 1.757542e+002
8465300000 -9.815918e+000 6.616396e+001 -3.085503e+000 -1.191202e+002 -7.541911e+001 3.844279e+001 -2.938172e+001 1.694720e+002
8555250000 -1.024191e+001 6.198471e+001 -3.230596e+000 -1.484593e+002 -6.950446e+001 -1.034441e+002 -2.755323e+001 1.662784e+002
8645200000 -9.627005e+000 5.822049e+001 -3.176117e+000 -1.748981e+002 -7.423052e+001 -1.030225e+002 -2.810086e+001 1.627115e+002
8735150000 -1.004893e+001 5.077914e+001 -3.483593e+000 1.576046e+002 -7.585718e+001 -1.242036e+002 -2.682652e+001 1.555800e+002
8825100000 -9.528831e+000 4.918392e+001 -3.269052e+000 1.306716e+002 -7.563039e+001 -1.416004e+002 -2.680155e+001 1.550474e+002
8915050000 -9.491435e+000 4.175795e+001 -3.563752e+000 1.016086e+002 -7.991272e+001 -5.347476e+001 -2.592866e+001 1.484916e+002
9005000000 -9.353315e+000 4.028592e+001 -3.607359e+000 7.314683e+001 -6.785250e+001 -3.834381e+001 -2.608458e+001 1.491421e+002
9094950000 -9.188804e+000 3.831936e+001 -3.775759e+000 4.531694e+001 -6.854462e+001 -9.907895e+001 -2.550271e+001 1.407705e+002
9184900000 -9.055544e+000 3.064216e+001 -4.086265e+000 1.712735e+001 -8.492257e+001 3.215282e+001 -2.561143e+001 1.418996e+002
9274850000 -8.877501e+000 2.897879e+001 -4.390844e+000 -1.076292e+001 -7.782401e+001 -1.753938e+002 -2.530312e+001 1.324593e+002
9364800000 -8.787035e+000 2.267168e+001 -4.535758e+000 -3.824858e+001 -8.877280e+001 -4.463034e+000 -2.526939e+001 1.348325e+002
9454750000 -8.571301e+000 1.919899e+001 -5.146792e+000 -6.529448e+001 -7.119479e+001 -1.428398e+002 -2.533356e+001 1.263655e+002
9544700000 -8.369898e+000 1.192418e+001 -5.225581e+000 -9.180413e+001 -7.260697e+001 -7.428589e+001 -2.507613e+001 1.283862e+002
9634650000 -8.327417e+000 8.594788e+000 -5.977505e+000 -1.188761e+002 -7.231886e+001 1.031891e+002 -2.553630e+001 1.212792e+002
9724600000 -8.198698e+000 5.490858e+000 -6.198556e+000 -1.448963e+002 -6.696536e+001 3.796164e+001 -2.498051e+001 1.239248e+002
9814550000 -8.591284e+000 1.785992e+000 -6.781935e+000 -1.698414e+002 -7.194080e+001 1.356988e+001 -2.604823e+001 1.204382e+002
9904500000 -8.242466e+000 -4.237311e+000 -6.942409e+000 1.642912e+002 -7.160188e+001 1.667984e+002 -2.490857e+001 1.193402e+002
9994450000 -8.048993e+000 -1.026004e+001 -6.790035e+000 1.397420e+002 -7.284921e+001 -2.088155e+001 -2.580326e+001 1.190091e+002
10084400000 -8.453942e+000 -1.540207e+001 -7.040445e+000 1.122376e+002 -7.363776e+001 1.519714e+002 -2.524528e+001 1.160101e+002
10174350000 -8.396675e+000 -1.814087e+001 -6.927298e+000 8.777502e+001 -7.117049e+001 -3.719093e+001 -2.577729e+001 1.184528e+002
10264300000 -7.593593e+000 -2.354256e+001 -6.844777e+000 6.008099e+001 -7.272095e+001 8.833739e+001 -2.557273e+001 1.118575e+002
10354250000 -7.782391e+000 -2.714833e+001 -6.890365e+000 3.506713e+001 -6.835346e+001 -1.205739e+002 -2.538113e+001 1.166355e+002
10444200000 -7.648130e+000 -3.342072e+001 -6.896406e+000 6.265439e+000 -6.812031e+001 -1.268803e+002 -2.585779e+001 1.088719e+002
10534150000 -7.698427e+000 -3.757692e+001 -6.981323e+000 -2.056981e+001 -7.298220e+001 5.736536e+001 -2.516188e+001 1.154898e+002
10624100000 -6.852836e+000 -4.318180e+001 -7.007828e+000 -4.671867e+001 -6.448603e+001 4.255269e+001 -2.583080e+001 1.096239e+002
10714050000 -6.811089e+000 -5.049731e+001 -7.048086e+000 -7.364300e+001 -6.771172e+001 4.246455e+001 -2.515930e+001 1.146846e+002
10804000000 -6.725456e+000 -5.457669e+001 -7.309678e+000 -1.033893e+002 -6.830920e+001 -8.960315e+001 -2.591875e+001 1.119311e+002
10893950000 -6.308264e+000 -6.127549e+001 -7.318762e+000 -1.303886e+002 -7.386858e+001 -1.760589e+002 -2.473093e+001 1.114136e+002
10983900000 -6.342929e+000 -6.879405e+001 -7.238850e+000 -1.573571e+002 -8.661340e+001 2.671652e+001 -2.565238e+001 1.124971e+002
11073850000 -6.083142e+000 -7.574996e+001 -7.487217e+000 1.760434e+002 -7.293953e+001 1.493484e+002 -2.438219e+001 1.088910e+002
11163800000 -5.766276e+000 -8.141205e+001 -7.853078e+000 1.467995e+002 -6.379409e+001 -1.296831e+002 -2.507513e+001 1.109302e+002
11253750000 -5.627668e+000 -8.326412e+001 -7.886415e+000 1.205758e+002 -6.853223e+001 1.413868e+002 -2.405318e+001 1.049752e+002
11343700000 -5.424508e+000 -9.330792e+001 -7.924771e+000 9.126513e+001 -6.932178e+001 3.178901e+001 -2.444238e+001 1.092544e+002
11433650000 -5.035959e+000 -9.886150e+001 -7.921302e+000 6.008612e+001 -7.556379e+001 1.937545e+001 -2.399637e+001 1.011266e+002
11523600000 -4.884973e+000 -1.053760e+002 -8.595539e+000 3.660143e+001 -7.320036e+001 -1.682659e+002 -2.385611e+001 1.054366e+002
11613550000 -4.172256e+000 -1.125210e+002 -8.576562e+000 6.168067e+000 -7.897978e+001 -2.209644e+001 -2.390211e+001 9.841509e+001
11703500000 -4.648990e+000 -1.201264e+002 -9.057520e+000 -1.805587e+001 -7.210043e+001 -1.276525e+002 -2.346323e+001 1.021517e+002
11793450000 -4.632470e+000 -1.258203e+002 -9.230955e+000 -4.716084e+001 -7.247660e+001 -1.739089e+001 -2.387110e+001 9.491434e+001
11883400000 -4.243171e+000 -1.324817e+002 -9.550179e+000 -7.617911e+001 -7.002393e+001 -5.873043e+001 -2.304998e+001 9.847235e+001
11973350000 -3.502530e+000 -1.388277e+002 -9.518710e+000 -1.010103e+002 -6.275324e+001 -2.305110e+001 -2.376061e+001 9.155116e+001
12063300000 -3.561065e+000 -1.507279e+002 -9.842928e+000 -1.283225e+002 -6.218913e+001 -1.165216e+002 -2.277561e+001 9.197526e+001
12153250000 -3.233578e+000 -1.559478e+002 -1.040348e+001 -1.574075e+002 -6.724557e+001 -3.766557e+001 -2.394019e+001 8.713539e+001
12243200000 -3.762434e+000 -1.608006e+002 -1.050266e+001 1.765628e+002 -7.141218e+001 -9.456046e+001 -2.269792e+001 8.436440e+001
12333150000 -3.189246e+000 -1.708454e+002 -1.092833e+001 1.509563e+002 -6.771842e+001 9.582425e+001 -2.409752e+001 8.227966e+001
12423100000 -3.169140e+000 -1.775612e+002 -1.031151e+001 1.244357e+002 -8.091722e+001 1.322426e+002 -2.319089e+001 7.685320e+001
12513050000 -3.408760e+000 1.752514e+002 -1.165082e+001 9.348019e+001 -6.807385e+001 -1.385981e+002 -2.455910e+001 7.950684e+001
12603000000 -2.438607e+000 1.719762e+002 -1.065256e+001 6.514389e+001 -7.592515e+001 6.567039e+001 -2.393842e+001 6.933146e+001
12692950000 -2.697955e+000 1.654057e+002 -1.129018e+001 3.520031e+001 -7.537862e+001 1.045038e+002 -2.530978e+001 7.679510e+001
12782900000 -2.649390e+000 1.594441e+002 -1.197401e+001 1.087895e+001 -6.995220e+001 -4.346027e+001 -2.516060e+001 6.306376e+001
12872850000 -2.004689e+000 1.528306e+002 -1.180739e+001 -2.296984e+001 -7.230781e+001 3.685972e+000 -2.560225e+001 7.347078e+001
12962800000 -2.424338e+000 1.426637e+002 -1.286059e+001 -5.342837e+001 -7.102861e+001 -1.465222e+002 -2.638577e+001 5.857603e+001
13052750000 -3.018926e+000 1.396050e+002 -1.430910e+001 -8.152717e+001 -7.742721e+001 1.538301e+002 -2.612990e+001 7.263458e+001
13142700000 -2.655105e+000 1.313270e+002 -1.454419e+001 -1.085197e+002 -6.932158e+001 3.461273e+001 -2.826859e+001 5.620906e+001
13232650000 -2.542218e+000 1.257106e+002 -1.564404e+001 -1.352665e+002 -7.276038e+001 1.689454e+002 -2.695293e+001 7.030802e+001
13322600000 -1.960760e+000 1.209348e+002 -1.514166e+001 -1.654625e+002 -6.863953e+001 -1.320825e+002 -3.101772e+001 6.016754e+001
13412550000 -2.617750e+000 1.170467e+002 -1.687591e+001 1.653106e+002 -6.582143e+001 8.692239e+001 -2.779508e+001 6.599334e+001
13502500000 -2.115140e+000 1.081547e+002 -1.659181e+001 1.486060e+002 -6.702215e+001 -2.758181e+001 -3.324657e+001 8.186974e+001
13592450000 -2.352404e+000 1.063350e+002 -1.860349e+001 1.242331e+002 -8.015762e+001 8.811925e+001 -2.889538e+001 6.654254e+001
13682400000 -2.025950e+000 1.007416e+002 -1.873474e+001 9.288128e+001 -7.361854e+001 7.968023e+001 -3.185032e+001 1.042836e+002
