!Agilent Technologies,E8363B,SG43030126,A.07.50.67
!Agilent E8363B: A.07.50.67
!Date: Monday, August 08, 1988 04:01:13
!Correction: S11(Full 2 Port(1,2)) 
!S21(Full 2 Port(1,2)) 
!S12(Full 2 Port(1,2)) 
!S22(Full 2 Port(1,2)) 
!S2P File: Measurements: S11, S21, S12, S22:
# Hz S  dB   R 50
10000000 -2.126498e+000 -2.973635e+001 -2.518154e+001 1.655777e+002 -5.607849e+001 -1.220097e+002 -2.770848e+001 1.005472e+002
99950000 -2.336160e-001 1.787693e+002 -3.125623e+001 -4.475928e+001 -6.467358e+001 -1.256889e+002 -3.996281e+001 1.546575e+002
189900000 -1.867997e+000 1.359479e+002 -1.708842e+001 -9.608849e+001 -6.380319e+001 -2.640867e+001 -3.996008e+001 1.501538e+002
279850000 -3.259080e+000 9.824149e+001 -1.249795e+001 -1.452344e+002 -5.966094e+001 7.322105e+001 -4.292052e+001 1.636841e+002
369800000 -5.298102e+000 7.204623e+001 -1.051434e+001 1.703838e+002 -6.378685e+001 9.407633e+000 -4.145636e+001 1.639312e+002
459750000 -7.683366e+000 4.649926e+001 -9.565154e+000 1.323958e+002 -5.746556e+001 -3.105797e+001 -4.162768e+001 1.655415e+002
549700000 -1.042629e+001 2.317599e+001 -8.894818e+000 9.839005e+001 -5.475717e+001 -6.635042e+001 -4.140045e+001 1.613839e+002
639650000 -1.185478e+001 8.287225e+000 -8.580914e+000 6.998070e+001 -5.559458e+001 -1.007766e+002 -3.974455e+001 1.544836e+002
729600000 -1.315047e+001 -8.722489e+000 -8.398220e+000 4.122427e+001 -5.418000e+001 -1.096236e+002 -3.986594e+001 1.562062e+002
819550000 -1.465143e+001 -2.604363e+001 -8.099940e+000 1.227360e+001 -5.828510e+001 -1.603715e+002 -3.995839e+001 1.562747e+002
909500000 -1.475231e+001 -4.040575e+001 -8.281181e+000 -1.239448e+001 -5.624186e+001 -1.753002e+002 -3.920501e+001 1.520515e+002
999450000 -1.561510e+001 -6.752623e+001 -8.136451e+000 -3.767815e+001 -5.694426e+001 -1.748377e+002 -3.975426e+001 1.485941e+002
1089400000 -1.640177e+001 -7.428078e+001 -8.178832e+000 -6.104629e+001 -5.623685e+001 1.361170e+002 -3.929187e+001 1.477101e+002
1179350000 -1.586305e+001 -9.831886e+001 -8.311112e+000 -8.619014e+001 -5.623023e+001 1.087939e+002 -3.895791e+001 1.466422e+002
1269300000 -1.600104e+001 -1.171457e+002 -8.379581e+000 -1.091043e+002 -5.518251e+001 9.883387e+001 -3.833916e+001 1.423757e+002
1359250000 -1.627124e+001 -1.303651e+002 -8.387026e+000 -1.340892e+002 -5.664187e+001 7.282221e+001 -3.844284e+001 1.419215e+002
1449200000 -1.595527e+001 -1.440709e+002 -8.282749e+000 -1.583920e+002 -5.672389e+001 5.370856e+001 -3.860034e+001 1.386650e+002
1539150000 -1.555481e+001 -1.586120e+002 -8.276316e+000 1.783612e+002 -5.500541e+001 3.022218e+001 -3.817210e+001 1.344595e+002
1629100000 -1.500216e+001 -1.707384e+002 -8.792674e+000 1.552020e+002 -5.738364e+001 1.320083e+001 -3.748698e+001 1.344114e+002
1719050000 -1.421397e+001 -1.772351e+002 -8.502039e+000 1.340044e+002 -5.456369e+001 -1.302899e+001 -3.756039e+001 1.331623e+002
1809000000 -1.430442e+001 1.742977e+002 -8.437844e+000 1.085422e+002 -5.587532e+001 -4.074363e+001 -3.702073e+001 1.298517e+002
1898950000 -1.393641e+001 1.609145e+002 -8.584387e+000 8.668975e+001 -5.695801e+001 -5.760615e+001 -3.773959e+001 1.249630e+002
1988900000 -1.379351e+001 1.566215e+002 -8.457314e+000 6.381379e+001 -5.668796e+001 -8.025185e+001 -3.707499e+001 1.242312e+002
2078850000 -1.361563e+001 1.428237e+002 -8.683173e+000 4.292765e+001 -5.591367e+001 -9.239851e+001 -3.770697e+001 1.217547e+002
2168800000 -1.342030e+001 1.349881e+002 -8.823082e+000 1.886504e+001 -5.590874e+001 -1.215042e+002 -3.762085e+001 1.244782e+002
2258750000 -1.314927e+001 1.385290e+002 -9.238701e+000 -3.458374e+000 -5.458605e+001 -1.339861e+002 -3.731160e+001 1.234695e+002
2348700000 -1.326109e+001 1.217498e+002 -8.623149e+000 -2.595135e+001 -5.701722e+001 -1.593145e+002 -3.649550e+001 1.176454e+002
2438650000 -1.150812e+001 1.135715e+002 -8.982181e+000 -4.771510e+001 -5.534610e+001 -1.799607e+002 -3.643768e+001 1.213237e+002
2528600000 -1.183589e+001 1.137060e+002 -8.984941e+000 -6.921528e+001 -5.460101e+001 1.623952e+002 -3.566990e+001 1.155179e+002
2618550000 -1.158830e+001 1.100347e+002 -9.011080e+000 -9.288378e+001 -5.542543e+001 1.260345e+002 -3.572480e+001 1.141346e+002
2708500000 -1.080927e+001 1.027215e+002 -9.614241e+000 -1.173011e+002 -5.821130e+001 1.161779e+002 -3.573298e+001 1.123274e+002
2798450000 -1.051304e+001 9.540425e+001 -9.362898e+000 -1.375025e+002 -5.385917e+001 9.507957e+001 -3.516864e+001 1.125776e+002
2888400000 -1.024739e+001 8.872243e+001 -9.676910e+000 -1.594020e+002 -5.869857e+001 8.356509e+001 -3.522519e+001 1.099454e+002
2978350000 -9.360519e+000 8.410068e+001 -9.050604e+000 1.793498e+002 -5.605298e+001 5.280494e+001 -3.434351e+001 1.116500e+002
3068300000 -9.242764e+000 7.198392e+001 -9.543892e+000 1.573940e+002 -5.837144e+001 4.349216e+001 -3.471032e+001 1.067033e+002
3158250000 -9.198807e+000 6.711423e+001 -9.601865e+000 1.358969e+002 -5.643498e+001 3.803472e+001 -3.470358e+001 1.090736e+002
3248200000 -8.829914e+000 5.646384e+001 -9.579675e+000 1.113450e+002 -5.691726e+001 -8.163433e+000 -3.424859e+001 1.006237e+002
3338150000 -8.379408e+000 4.972430e+001 -9.996939e+000 9.070006e+001 -5.723160e+001 -2.849768e+001 -3.347619e+001 1.062451e+002
3428100000 -8.120700e+000 4.356574e+001 -9.443470e+000 7.089680e+001 -5.664737e+001 -4.443044e+001 -3.431481e+001 9.895537e+001
3518050000 -8.442312e+000 3.804859e+001 -1.000883e+001 4.527831e+001 -5.465993e+001 -5.679119e+001 -3.306025e+001 1.008722e+002
3608000000 -8.034130e+000 3.081703e+001 -9.899491e+000 2.460239e+001 -5.604486e+001 -6.731152e+001 -3.377977e+001 9.447101e+001
3697950000 -8.290641e+000 2.602513e+001 -9.706527e+000 4.824561e+000 -5.742835e+001 -8.922653e+001 -3.285465e+001 9.441017e+001
3787900000 -8.328959e+000 1.875054e+001 -9.924233e+000 -2.022874e+001 -5.764569e+001 -1.197471e+002 -3.354798e+001 9.179218e+001
3877850000 -8.195126e+000 1.092562e+001 -9.511378e+000 -4.089067e+001 -5.632605e+001 -1.210025e+002 -3.279485e+001 8.733054e+001
3967800000 -8.339362e+000 3.637668e+000 -1.000585e+001 -6.537816e+001 -5.809821e+001 -1.546632e+002 -3.242487e+001 9.084653e+001
4057750000 -8.132324e+000 -9.920526e-002 -1.022056e+001 -8.450819e+001 -5.584935e+001 -1.703376e+002 -3.044025e+001 8.340768e+001
4147700000 -7.888744e+000 -6.300241e+000 -1.015544e+001 -1.087851e+002 -5.714161e+001 1.622993e+002 -2.980713e+001 8.061746e+001
4237650000 -7.878823e+000 -9.240356e+000 -1.019659e+001 -1.279785e+002 -5.905151e+001 1.341234e+002 -3.101341e+001 7.525342e+001
4327600000 -7.818016e+000 -2.053418e+001 -1.003622e+001 -1.507690e+002 -6.011491e+001 1.075205e+002 -3.032798e+001 6.666688e+001
4417550000 -7.736002e+000 -2.507594e+001 -1.024925e+001 -1.737963e+002 -5.636584e+001 9.925983e+001 -3.119209e+001 6.484740e+001
4507500000 -7.712030e+000 -3.248091e+001 -1.035838e+001 1.636740e+002 -5.640342e+001 7.170119e+001 -3.070985e+001 6.251330e+001
4597450000 -7.568990e+000 -3.933313e+001 -1.009453e+001 1.433835e+002 -5.421871e+001 4.459073e+001 -3.092328e+001 5.690374e+001
4687400000 -7.481969e+000 -4.662957e+001 -1.032997e+001 1.209684e+002 -5.824878e+001 3.970384e+001 -3.086877e+001 5.633921e+001
4777350000 -7.056311e+000 -5.686198e+001 -1.041052e+001 9.804114e+001 -5.597867e+001 -1.098481e+001 -3.188542e+001 5.000975e+001
4867300000 -6.765767e+000 -6.288487e+001 -1.009502e+001 7.775188e+001 -5.842567e+001 -8.216928e+000 -3.161550e+001 4.936146e+001
4957250000 -7.077267e+000 -7.223396e+001 -1.006354e+001 5.952800e+001 -5.785913e+001 -2.197709e+001 -3.229742e+001 4.758179e+001
5047200000 -6.915383e+000 -8.253741e+001 -1.023036e+001 3.158990e+001 -5.731663e+001 -4.741132e+001 -3.312712e+001 4.249618e+001
5137150000 -6.916277e+000 -9.171146e+001 -1.015806e+001 1.044080e+001 -5.662051e+001 -7.199872e+001 -3.339114e+001 4.286395e+001
5227100000 -7.106319e+000 -1.009513e+002 -1.051359e+001 -1.008351e+001 -5.786745e+001 -6.761749e+001 -3.459219e+001 3.751273e+001
5317050000 -7.180959e+000 -1.100027e+002 -1.011479e+001 -3.267087e+001 -5.754873e+001 -7.873946e+001 -3.439062e+001 4.016724e+001
5407000000 -7.068908e+000 -1.203051e+002 -1.008879e+001 -5.421850e+001 -5.896619e+001 -1.254300e+002 -3.609026e+001 3.698402e+001
5496950000 -7.393407e+000 -1.301159e+002 -1.017268e+001 -7.953336e+001 -6.035802e+001 -1.476802e+002 -3.556229e+001 3.337775e+001
5586900000 -7.032211e+000 -1.405764e+002 -9.876176e+000 -1.019672e+002 -5.945351e+001 1.751269e+002 -3.776878e+001 3.757972e+001
5676850000 -7.413524e+000 -1.497755e+002 -9.990900e+000 -1.240192e+002 -5.597612e+001 -1.787345e+002 -3.745526e+001 3.655069e+001
5766800000 -7.512079e+000 -1.587990e+002 -1.010270e+001 -1.446964e+002 -5.771494e+001 1.517053e+002 -3.938842e+001 4.589944e+001
5856750000 -7.632076e+000 -1.698506e+002 -1.003670e+001 -1.691247e+002 -5.718129e+001 1.351022e+002 -3.910038e+001 3.951240e+001
5946700000 -7.617101e+000 -1.790093e+002 -1.019783e+001 1.674998e+002 -5.858362e+001 1.321745e+002 -4.037050e+001 4.783105e+001
6036650000 -7.662288e+000 1.715253e+002 -1.056616e+001 1.467182e+002 -5.688100e+001 8.607901e+001 -3.928448e+001 4.252794e+001
6126600000 -7.404117e+000 1.633261e+002 -1.053740e+001 1.219220e+002 -5.928724e+001 6.264841e+001 -4.132473e+001 6.291023e+001
6216550000 -7.492648e+000 1.548315e+002 -1.030401e+001 1.013218e+002 -5.884029e+001 6.043720e+001 -4.057961e+001 3.288857e+001
6306500000 -7.503460e+000 1.423751e+002 -1.020771e+001 7.741025e+001 -5.980035e+001 2.672959e+001 -3.976036e+001 6.657130e+001
6396450000 -7.661444e+000 1.363309e+002 -1.064099e+001 5.475177e+001 -5.831571e+001 1.368938e+001 -4.270620e+001 4.109265e+001
6486400000 -7.030298e+000 1.259879e+002 -1.101548e+001 3.281326e+001 -5.903839e+001 -1.286936e+001 -4.103020e+001 6.829238e+001
6576350000 -7.053195e+000 1.166350e+002 -1.075492e+001 7.864517e+000 -5.948964e+001 -3.256798e+001 -4.683582e+001 5.800904e+001
6666300000 -6.902327e+000 1.083963e+002 -1.109583e+001 -1.335015e+001 -5.683300e+001 -5.468216e+001 -4.252412e+001 6.774401e+001
6756250000 -6.216071e+000 9.902396e+001 -1.106681e+001 -3.590989e+001 -5.876352e+001 -6.241789e+001 -4.880128e+001 8.478786e+001
6846200000 -6.347163e+000 9.139506e+001 -1.134412e+001 -5.764545e+001 -5.868353e+001 -9.916438e+001 -4.291759e+001 6.766885e+001
6936150000 -5.721577e+000 7.965816e+001 -1.138297e+001 -8.279228e+001 -5.670285e+001 -1.183341e+002 -4.982628e+001 1.194210e+002
7026100000 -5.609759e+000 7.018568e+001 -1.096077e+001 -1.015287e+002 -5.686129e+001 -1.213109e+002 -4.700946e+001 5.719724e+001
7116050000 -5.204887e+000 6.151089e+001 -1.153778e+001 -1.297072e+002 -5.579702e+001 -1.587581e+002 -4.726925e+001 1.375568e+002
7206000000 -5.031089e+000 4.998215e+001 -1.156357e+001 -1.463025e+002 -5.590229e+001 1.731414e+002 -5.307909e+001 3.555337e+001
7295950000 -4.469546e+000 4.137902e+001 -1.108374e+001 -1.745133e+002 -5.520748e+001 1.778414e+002 -4.488599e+001 1.480455e+002
7385900000 -4.593806e+000 3.087835e+001 -1.167426e+001 1.660137e+002 -5.602191e+001 1.465945e+002 -4.940356e+001 -1.309003e+002
7475850000 -4.505548e+000 2.173521e+001 -1.178673e+001 1.412585e+002 -5.927056e+001 1.280747e+002 -4.183400e+001 1.604242e+002
7565800000 -4.277198e+000 1.169362e+001 -1.214114e+001 1.179249e+002 -5.915689e+001 9.124120e+001 -4.055763e+001 -1.394640e+002
7655750000 -4.406358e+000 5.256400e-001 -1.251818e+001 9.352869e+001 -5.925519e+001 6.602747e+001 -3.910350e+001 1.547979e+002
7745700000 -4.245413e+000 -1.017451e+001 -1.227945e+001 6.846324e+001 -5.739034e+001 5.640435e+001 -3.542405e+001 -1.486477e+002
7835650000 -4.173255e+000 -1.869491e+001 -1.294388e+001 4.395088e+001 -5.948020e+001 3.333521e+001 -3.892160e+001 1.531889e+002
7925600000 -4.296076e+000 -2.673010e+001 -1.271884e+001 2.066691e+001 -6.070050e+001 -2.090906e+000 -3.132858e+001 -1.656563e+002
8015550000 -4.303694e+000 -3.601979e+001 -1.306175e+001 1.315881e+000 -5.639657e+001 -5.337511e+000 -4.073026e+001 1.796020e+002
8105500000 -4.525608e+000 -4.641526e+001 -1.391854e+001 -2.517161e+001 -6.276616e+001 -2.908128e+001 -2.939584e+001 1.725568e+002
8195450000 -4.359344e+000 -5.468471e+001 -1.370345e+001 -4.771435e+001 -6.185751e+001 -4.059475e+001 -3.245510e+001 -1.574927e+002
8285400000 -4.184507e+000 -6.418027e+001 -1.402771e+001 -7.229204e+001 -5.751099e+001 -7.447673e+001 -2.972857e+001 1.584133e+002
8375350000 -4.262758e+000 -7.270835e+001 -1.510228e+001 -9.168232e+001 -6.029901e+001 -9.074229e+001 -2.874756e+001 -1.765434e+002
8465300000 -4.526356e+000 -8.344613e+001 -1.548249e+001 -1.178432e+002 -6.048716e+001 -1.146641e+002 -2.921547e+001 1.594047e+002
8555250000 -4.252966e+000 -8.935060e+001 -1.530848e+001 -1.395070e+002 -5.849119e+001 -1.165002e+002 -2.709865e+001 1.689135e+002
8645200000 -4.638771e+000 -9.957504e+001 -1.592290e+001 -1.606719e+002 -6.196218e+001 -1.422611e+002 -2.783047e+001 1.557517e+002
8735150000 -4.462019e+000 -1.054014e+002 -1.650717e+001 1.789387e+002 -6.075539e+001 -1.743954e+002 -2.636399e+001 1.575198e+002
8825100000 -4.553868e+000 -1.163217e+002 -1.647547e+001 1.538233e+002 -5.778143e+001 1.674724e+002 -2.679005e+001 1.493755e+002
8915050000 -4.801609e+000 -1.221547e+002 -1.713087e+001 1.318256e+002 -6.035373e+001 1.336635e+002 -2.580628e+001 1.494642e+002
9005000000 -5.118734e+000 -1.306336e+002 -1.705171e+001 1.104279e+002 -5.850022e+001 1.302874e+002 -2.627924e+001 1.416082e+002
9094950000 -5.147923e+000 -1.388864e+002 -1.759823e+001 8.596185e+001 -6.554347e+001 1.082756e+002 -2.548185e+001 1.426316e+002
9184900000 -5.720195e+000 -1.439574e+002 -1.866446e+001 7.053204e+001 -6.510168e+001 9.923227e+001 -2.613279e+001 1.333722e+002
9274850000 -5.625714e+000 -1.494394e+002 -1.895491e+001 4.922876e+001 -6.082011e+001 5.877374e+001 -2.485754e+001 1.363462e+002
9364800000 -5.687648e+000 -1.537916e+002 -2.013806e+001 3.232918e+001 -6.194781e+001 4.208450e+001 -2.617242e+001 1.280193e+002
9454750000 -5.336419e+000 -1.588397e+002 -1.995394e+001 4.455394e+000 -6.341698e+001 2.273590e+001 -2.424230e+001 1.294003e+002
9544700000 -5.677444e+000 -1.650719e+002 -1.999160e+001 -1.456020e+001 -5.970949e+001 1.645465e+001 -2.656293e+001 1.251301e+002
9634650000 -5.078764e+000 -1.699967e+002 -2.085247e+001 -3.565967e+001 -6.171031e+001 1.300796e+000 -2.382251e+001 1.199996e+002
9724600000 -4.220347e+000 -1.753218e+002 -1.986943e+001 -5.526207e+001 -6.543114e+001 1.086472e+001 -2.684855e+001 1.307676e+002
9814550000 -4.301439e+000 -1.795245e+002 -2.082728e+001 -7.386503e+001 -6.043008e+001 -5.679872e+001 -2.401147e+001 1.066591e+002
9904500000 -3.982470e+000 1.712816e+002 -2.031823e+001 -1.016204e+002 -6.761697e+001 -9.577097e+001 -2.530795e+001 1.353506e+002
9994450000 -3.827250e+000 1.620596e+002 -2.126293e+001 -1.262725e+002 -6.194913e+001 -7.221353e+001 -2.638238e+001 9.776132e+001
10084400000 -3.435758e+000 1.550152e+002 -2.207961e+001 -1.569674e+002 -6.326635e+001 -5.496824e+001 -2.353469e+001 1.241680e+002
10174350000 -3.020096e+000 1.458242e+002 -2.175582e+001 -1.737952e+002 -6.737872e+001 -1.046942e+002 -2.893724e+001 1.090315e+002
10264300000 -2.937480e+000 1.387619e+002 -2.109348e+001 1.769026e+002 -5.868538e+001 -1.522116e+002 -2.329575e+001 1.124588e+002
10354250000 -2.808341e+000 1.308195e+002 -2.285077e+001 1.425082e+002 -5.819256e+001 1.643305e+002 -2.783365e+001 1.245588e+002
10444200000 -2.825289e+000 1.237247e+002 -2.321220e+001 1.185334e+002 -5.919418e+001 1.745471e+002 -2.399989e+001 1.029489e+002
10534150000 -2.626578e+000 1.132294e+002 -2.321624e+001 1.005955e+002 -6.181992e+001 1.369907e+002 -2.590295e+001 1.251888e+002
10624100000 -2.611613e+000 1.062001e+002 -2.320426e+001 7.876002e+001 -5.996067e+001 1.376863e+002 -2.487864e+001 9.978450e+001
10714050000 -2.472319e+000 9.774845e+001 -2.417844e+001 5.454930e+001 -6.450571e+001 1.106897e+002 -2.487283e+001 1.200699e+002
10804000000 -2.470976e+000 9.056763e+001 -2.529011e+001 3.802340e+001 -6.278630e+001 1.270369e+002 -2.573048e+001 9.829781e+001
10893950000 -2.558253e+000 7.982912e+001 -2.533277e+001 1.110736e+001 -6.274518e+001 7.826001e+001 -2.413322e+001 1.144280e+002
10983900000 -2.776590e+000 7.293279e+001 -2.594578e+001 -8.841268e+000 -6.385725e+001 5.112048e+001 -2.630651e+001 1.012279e+002
11073850000 -2.107814e+000 6.299605e+001 -2.470115e+001 -2.472408e+001 -6.529362e+001 4.772137e+001 -2.376581e+001 1.093324e+002
11163800000 -2.575978e+000 5.544949e+001 -2.682718e+001 -5.554150e+001 -6.099460e+001 -2.188389e-002 -2.614929e+001 1.035518e+002
11253750000 -2.397296e+000 4.605075e+001 -2.589945e+001 -5.688665e+001 -5.939566e+001 -1.427407e+001 -2.344706e+001 1.033249e+002
11343700000 -2.548873e+000 3.736866e+001 -2.635158e+001 -8.485750e+001 -6.178627e+001 -2.536099e+001 -2.550532e+001 1.066114e+002
11433650000 -2.815774e+000 2.452896e+001 -2.888273e+001 -1.135099e+002 -6.141295e+001 -5.601344e+001 -2.336867e+001 9.836193e+001
11523600000 -2.870725e+000 1.552115e+001 -3.136629e+001 -1.395507e+002 -6.162450e+001 -1.095205e+002 -2.451026e+001 1.053710e+002
11613550000 -3.004095e+000 4.679593e+000 -3.077335e+001 -1.393372e+002 -6.192341e+001 -7.810870e+001 -2.332328e+001 9.266685e+001
11703500000 -3.106513e+000 -7.484425e+000 -3.471096e+001 -1.687858e+002 -6.017418e+001 -1.348418e+002 -2.375120e+001 1.024025e+002
11793450000 -3.271972e+000 -1.865682e+001 -3.301487e+001 1.662401e+002 -6.426181e+001 -8.359392e+001 -2.346690e+001 8.774421e+001
11883400000 -3.615525e+000 -2.855406e+001 -3.073313e+001 1.574390e+002 -6.342641e+001 -1.327038e+002 -2.326789e+001 9.710258e+001
11973350000 -4.437075e+000 -4.405716e+001 -3.296255e+001 1.191659e+002 -6.583726e+001 -1.756104e+002 -2.391828e+001 8.379228e+001
12063300000 -4.579425e+000 -5.862716e+001 -3.433244e+001 9.499802e+001 -6.634123e+001 -1.222566e+002 -2.309265e+001 9.007072e+001
12153250000 -5.045918e+000 -7.589777e+001 -3.449757e+001 1.429811e+002 -7.454739e+001 1.322420e+002 -2.435336e+001 8.037059e+001
12243200000 -5.919142e+000 -9.166162e+001 -3.808249e+001 1.020763e+002 -6.865166e+001 -1.597874e+002 -2.310067e+001 8.546626e+001
12333150000 -6.337836e+000 -1.064902e+002 -3.707508e+001 9.500484e+001 -6.468527e+001 -1.533779e+002 -2.497206e+001 7.678693e+001
12423100000 -6.748883e+000 -1.285883e+002 -3.591996e+001 1.083498e+002 -6.585316e+001 1.031804e+002 -2.312398e+001 7.722532e+001
12513050000 -7.329808e+000 -1.474505e+002 -3.134461e+001 6.144345e+001 -8.438565e+001 9.376653e+001 -2.547203e+001 7.542493e+001
12603000000 -8.129771e+000 -1.704684e+002 -3.948599e+001 -1.467063e+001 -6.951274e+001 5.348581e+001 -2.369788e+001 6.878819e+001
12692950000 -8.916958e+000 1.698171e+002 -3.285452e+001 2.538058e+001 -6.701273e+001 6.909990e+001 -2.625669e+001 7.403142e+001
12782900000 -1.026095e+001 1.464242e+002 -3.396731e+001 1.707801e+001 -6.874251e+001 6.587585e+001 -2.478493e+001 5.984493e+001
12872850000 -9.971251e+000 1.209898e+002 -3.377910e+001 -3.551624e+001 -7.208685e+001 7.652166e+001 -2.642876e+001 7.006749e+001
12962800000 -9.737537e+000 9.795023e+001 -2.979202e+001 -5.296505e+001 -6.188694e+001 5.363068e+001 -2.634666e+001 5.518455e+001
13052750000 -9.963967e+000 6.954014e+001 -2.973729e+001 -7.020619e+001 -7.299656e+001 6.734472e+001 -2.766000e+001 6.923558e+001
13142700000 -9.673911e+000 4.794138e+001 -2.873511e+001 -1.009903e+002 -5.837468e+001 -2.155831e+001 -2.826766e+001 5.176116e+001
13232650000 -8.812610e+000 2.635260e+001 -2.830167e+001 -1.155910e+002 -6.124035e+001 -2.876998e+001 -2.868744e+001 6.962579e+001
13322600000 -8.196808e+000 1.068429e+001 -2.803369e+001 -1.616581e+002 -6.249150e+001 -4.137191e+001 -3.078846e+001 5.272575e+001
13412550000 -7.486416e+000 -8.903221e+000 -2.959531e+001 1.758159e+002 -6.318911e+001 -7.290002e+001 -2.913885e+001 7.256079e+001
13502500000 -7.244077e+000 -2.393857e+001 -2.971051e+001 1.686402e+002 -6.186731e+001 -1.014867e+002 -3.340751e+001 6.499603e+001
13592450000 -6.664289e+000 -4.003945e+001 -2.467213e+001 1.370906e+002 -7.041057e+001 -1.177966e+002 -2.992191e+001 7.632146e+001
13682400000 -5.912790e+000 -5.333985e+001 -2.711191e+001 1.401266e+002 -6.172075e+001 -1.445173e+002 -3.453986e+001 8.944360e+001
