!Agilent Technologies,E8363B,SG43030126,A.07.50.67
!Agilent E8363B: A.07.50.67
!Date: Monday, August 08, 1988 04:25:02
!Correction: S11(Full 2 Port(1,2)) 
!S21(Full 2 Port(1,2)) 
!S12(Full 2 Port(1,2)) 
!S22(Full 2 Port(1,2)) 
!S2P File: Measurements: S11, S21, S12, S22:
# Hz S  dB   R 50
10000000 -6.663601e-001 -3.437805e+001 -2.094675e+001 -8.651640e+000 -4.443472e+001 -2.440555e+001 -2.869152e+001 9.183524e+001
99950000 -3.652517e-001 1.786223e+002 -2.122711e+001 -5.114519e+001 -6.754443e+001 -1.234709e+002 -4.038934e+001 1.534484e+002
189900000 -1.527598e+000 1.338784e+002 -1.566862e+001 -8.987908e+001 -6.696507e+001 5.854138e+001 -4.037780e+001 1.622416e+002
279850000 -3.911651e+000 9.494661e+001 -1.240923e+001 -1.450443e+002 -6.565178e+001 4.398426e+001 -4.271920e+001 1.622972e+002
369800000 -6.462148e+000 6.795040e+001 -9.935957e+000 1.686314e+002 -5.816581e+001 1.141924e+001 -4.146571e+001 1.638407e+002
459750000 -9.678220e+000 4.288160e+001 -8.474388e+000 1.286694e+002 -5.924933e+001 -3.327543e+001 -4.165733e+001 1.633230e+002
549700000 -1.290125e+001 2.088389e+001 -8.375205e+000 9.377271e+001 -5.572498e+001 -6.797620e+001 -4.066238e+001 1.606184e+002
639650000 -1.572345e+001 6.311073e+000 -8.246743e+000 6.850539e+001 -5.451122e+001 -8.382936e+001 -3.985195e+001 1.554307e+002
729600000 -1.704604e+001 -1.128942e+001 -8.216750e+000 4.059699e+001 -5.394242e+001 -1.289005e+002 -3.943808e+001 1.547747e+002
819550000 -2.057855e+001 -4.270288e+001 -7.986770e+000 1.181991e+001 -5.967413e+001 -1.417104e+002 -4.070007e+001 1.543790e+002
909500000 -2.108191e+001 -6.454424e+001 -8.127567e+000 -1.536694e+001 -5.690688e+001 -1.662284e+002 -3.833427e+001 1.511549e+002
999450000 -2.072131e+001 -9.145135e+001 -7.747494e+000 -3.695805e+001 -5.788252e+001 1.524393e+002 -3.979245e+001 1.532157e+002
1089400000 -2.254701e+001 -1.098672e+002 -7.804178e+000 -6.285474e+001 -5.699205e+001 1.415214e+002 -3.899883e+001 1.472727e+002
1179350000 -2.065614e+001 -1.215738e+002 -7.862103e+000 -8.654329e+001 -5.759657e+001 1.089188e+002 -3.919120e+001 1.489037e+002
1269300000 -1.999157e+001 -1.464813e+002 -8.224290e+000 -1.110737e+002 -5.496827e+001 9.343590e+001 -3.826140e+001 1.402822e+002
1359250000 -1.914832e+001 -1.549253e+002 -7.797034e+000 -1.341303e+002 -5.621199e+001 8.140639e+001 -3.811166e+001 1.435922e+002
1449200000 -1.857463e+001 -1.741111e+002 -8.075767e+000 -1.564687e+002 -5.788330e+001 5.508056e+001 -3.898317e+001 1.361010e+002
1539150000 -1.864310e+001 1.750541e+002 -8.278163e+000 1.782563e+002 -5.685110e+001 3.508553e+001 -3.767202e+001 1.369114e+002
1629100000 -1.708784e+001 1.635475e+002 -8.466802e+000 1.560919e+002 -5.806638e+001 2.112958e+001 -3.751341e+001 1.332746e+002
1719050000 -1.607866e+001 1.577050e+002 -8.308444e+000 1.345316e+002 -5.894823e+001 -1.557351e+000 -3.745849e+001 1.339969e+002
1809000000 -1.699789e+001 1.506308e+002 -8.299603e+000 1.110328e+002 -5.639296e+001 -2.174289e+001 -3.732161e+001 1.282526e+002
1898950000 -1.595351e+001 1.476686e+002 -8.152025e+000 8.868695e+001 -5.554161e+001 -4.962518e+001 -3.730462e+001 1.266103e+002
1988900000 -1.655008e+001 1.376586e+002 -8.324743e+000 6.523269e+001 -5.539638e+001 -7.771443e+001 -3.700213e+001 1.231418e+002
2078850000 -1.525271e+001 1.334108e+002 -8.360620e+000 4.245890e+001 -5.478793e+001 -7.896952e+001 -3.692713e+001 1.230045e+002
2168800000 -1.599593e+001 1.214529e+002 -8.511238e+000 1.935840e+001 -5.526746e+001 -1.133355e+002 -3.749382e+001 1.266223e+002
2258750000 -1.530505e+001 1.283755e+002 -8.550991e+000 8.394466e-002 -6.243025e+001 -1.383268e+002 -3.719200e+001 1.201344e+002
2348700000 -1.503185e+001 1.149776e+002 -8.843360e+000 -2.607790e+001 -5.650450e+001 -1.624317e+002 -3.667507e+001 1.190024e+002
2438650000 -1.373584e+001 1.111119e+002 -8.411969e+000 -4.753309e+001 -5.850425e+001 1.725242e+002 -3.625393e+001 1.194766e+002
2528600000 -1.413645e+001 1.042926e+002 -8.602067e+000 -6.729312e+001 -5.681688e+001 1.533468e+002 -3.592920e+001 1.173431e+002
2618550000 -1.319372e+001 9.955030e+001 -8.601169e+000 -9.154648e+001 -5.680737e+001 1.458299e+002 -3.535728e+001 1.139236e+002
2708500000 -1.282513e+001 9.286121e+001 -9.222080e+000 -1.126524e+002 -5.556487e+001 1.130766e+002 -3.569633e+001 1.127152e+002
2798450000 -1.299351e+001 8.976860e+001 -8.817697e+000 -1.354046e+002 -5.616880e+001 1.138844e+002 -3.505779e+001 1.108805e+002
2888400000 -1.227116e+001 8.489017e+001 -8.923794e+000 -1.579291e+002 -5.772034e+001 7.839139e+001 -3.516351e+001 1.123280e+002
2978350000 -1.130643e+001 8.263445e+001 -9.019945e+000 1.795800e+002 -5.638905e+001 5.126156e+001 -3.444041e+001 1.097807e+002
3068300000 -1.138414e+001 7.305010e+001 -9.232636e+000 1.565138e+002 -5.808741e+001 2.750269e+001 -3.446058e+001 1.083778e+002
3158250000 -1.136113e+001 6.504706e+001 -9.222553e+000 1.353640e+002 -5.639552e+001 3.251003e+001 -3.481725e+001 1.076747e+002
3248200000 -1.074820e+001 5.487222e+001 -8.930583e+000 1.153505e+002 -5.644728e+001 9.229449e+000 -3.402792e+001 1.010611e+002
3338150000 -1.030065e+001 5.046958e+001 -9.270114e+000 9.198987e+001 -5.698931e+001 -9.788822e+000 -3.407017e+001 1.059146e+002
3428100000 -9.702840e+000 4.144596e+001 -8.861248e+000 6.985863e+001 -6.048904e+001 -4.618645e+001 -3.403490e+001 9.888361e+001
3518050000 -1.037979e+001 3.431046e+001 -9.152931e+000 4.750216e+001 -5.789349e+001 -3.951204e+001 -3.352867e+001 1.026059e+002
3608000000 -1.001359e+001 2.661775e+001 -9.281495e+000 2.456456e+001 -5.712557e+001 -7.965342e+001 -3.331060e+001 9.372134e+001
3697950000 -1.053056e+001 2.235111e+001 -9.402069e+000 2.940359e+000 -5.499635e+001 -7.980589e+001 -3.283855e+001 9.635984e+001
3787900000 -1.081557e+001 1.619693e+001 -9.216105e+000 -1.843365e+001 -5.665631e+001 -1.162318e+002 -3.320168e+001 8.978068e+001
3877850000 -9.703198e+000 9.188908e+000 -9.176427e+000 -3.951894e+001 -5.807360e+001 -1.581017e+002 -3.299991e+001 9.120276e+001
3967800000 -1.054451e+001 2.690944e+000 -9.508162e+000 -6.419215e+001 -5.781067e+001 -1.697034e+002 -3.240057e+001 8.689764e+001
4057750000 -9.945361e+000 -2.207452e+000 -9.221336e+000 -8.707803e+001 -5.591317e+001 1.556712e+002 -3.042750e+001 8.504585e+001
4147700000 -9.759583e+000 -6.670474e+000 -9.468034e+000 -1.096323e+002 -5.552845e+001 1.425798e+002 -2.997485e+001 7.756426e+001
4237650000 -1.003661e+001 -1.417094e+001 -9.386855e+000 -1.276347e+002 -5.804083e+001 1.462780e+002 -3.064606e+001 7.746609e+001
4327600000 -9.498931e+000 -2.233567e+001 -9.320226e+000 -1.517126e+002 -5.637022e+001 1.114745e+002 -3.073669e+001 6.413740e+001
4417550000 -9.473432e+000 -2.899221e+001 -9.266325e+000 -1.750574e+002 -6.026027e+001 1.109807e+002 -3.080930e+001 6.717158e+001
4507500000 -9.711142e+000 -3.437106e+001 -9.710802e+000 1.635564e+002 -5.664087e+001 7.577233e+001 -3.113953e+001 6.064776e+001
4597450000 -9.424342e+000 -4.049226e+001 -9.544609e+000 1.418406e+002 -5.716665e+001 3.969648e+001 -3.057738e+001 5.835602e+001
4687400000 -9.307886e+000 -5.223553e+001 -9.680458e+000 1.179719e+002 -5.826746e+001 3.743019e+001 -3.117317e+001 5.689438e+001
4777350000 -8.909609e+000 -6.098041e+001 -9.927867e+000 9.664182e+001 -5.788134e+001 2.657213e+001 -3.131429e+001 5.019721e+001
4867300000 -9.149427e+000 -6.906603e+001 -9.718309e+000 7.653693e+001 -5.850913e+001 -8.975198e+000 -3.207484e+001 4.911116e+001
4957250000 -8.986297e+000 -7.612206e+001 -9.386327e+000 5.252089e+001 -5.706979e+001 -1.970074e+001 -3.177562e+001 4.611128e+001
5047200000 -8.797513e+000 -8.868584e+001 -9.609946e+000 3.141977e+001 -5.775076e+001 -4.096512e+001 -3.359692e+001 4.657934e+001
5137150000 -8.828963e+000 -9.657212e+001 -9.411192e+000 1.058794e+001 -5.767763e+001 -7.002749e+001 -3.271108e+001 3.875637e+001
5227100000 -8.700016e+000 -1.075321e+002 -9.748291e+000 -1.215944e+001 -5.587996e+001 -9.046471e+001 -3.470637e+001 4.328671e+001
5317050000 -9.179268e+000 -1.164014e+002 -9.731171e+000 -3.302888e+001 -5.591581e+001 -1.046532e+002 -3.432331e+001 3.357735e+001
5407000000 -8.842669e+000 -1.287356e+002 -9.816542e+000 -5.890485e+001 -5.499639e+001 -1.165062e+002 -3.572529e+001 4.348800e+001
5496950000 -8.816340e+000 -1.390799e+002 -9.423847e+000 -8.165762e+001 -5.923307e+001 -1.497595e+002 -3.592712e+001 2.640522e+001
5586900000 -9.127372e+000 -1.476382e+002 -9.541608e+000 -1.043208e+002 -5.724329e+001 -1.696158e+002 -3.714358e+001 4.446077e+001
5676850000 -9.069365e+000 -1.559010e+002 -9.868552e+000 -1.290968e+002 -5.682246e+001 1.797810e+002 -3.818419e+001 3.201806e+001
5766800000 -8.981854e+000 -1.684289e+002 -9.983491e+000 -1.493808e+002 -5.785590e+001 1.450101e+002 -3.761273e+001 4.845379e+001
5856750000 -9.045683e+000 -1.777932e+002 -9.856196e+000 -1.719729e+002 -5.701547e+001 1.278109e+002 -4.132298e+001 4.204528e+001
5946700000 -8.913631e+000 1.736295e+002 -1.037054e+001 1.648629e+002 -5.844311e+001 1.157319e+002 -3.865862e+001 4.496543e+001
6036650000 -9.038616e+000 1.655134e+002 -9.948202e+000 1.428079e+002 -5.499331e+001 9.022950e+001 -4.112369e+001 4.950703e+001
6126600000 -8.767850e+000 1.539594e+002 -1.019578e+001 1.169952e+002 -5.802188e+001 5.605536e+001 -4.080199e+001 4.915371e+001
6216550000 -8.543784e+000 1.468999e+002 -1.017285e+001 9.952995e+001 -5.932664e+001 4.761014e+001 -4.237986e+001 4.848346e+001
6306500000 -8.524790e+000 1.373907e+002 -1.003052e+001 7.466530e+001 -5.579753e+001 2.397891e+001 -3.999288e+001 5.278147e+001
6396450000 -8.553241e+000 1.298600e+002 -1.038011e+001 5.404549e+001 -6.040523e+001 3.092428e+001 -4.330033e+001 6.116302e+001
6486400000 -8.109849e+000 1.210084e+002 -1.056953e+001 2.963675e+001 -5.828617e+001 -2.475598e+001 -4.248381e+001 5.060256e+001
6576350000 -8.020081e+000 1.125417e+002 -1.054887e+001 5.356502e+000 -5.708371e+001 -3.516796e+001 -4.357521e+001 7.652033e+001
6666300000 -7.814265e+000 1.027725e+002 -1.079284e+001 -1.576106e+001 -5.709420e+001 -6.614648e+001 -4.575922e+001 4.524467e+001
6756250000 -7.266526e+000 9.551316e+001 -1.092801e+001 -3.721336e+001 -6.031817e+001 -9.037067e+001 -4.336400e+001 7.812648e+001
6846200000 -7.046012e+000 8.713811e+001 -1.093543e+001 -5.976080e+001 -5.915779e+001 -1.010330e+002 -4.890664e+001 6.836923e+001
6936150000 -6.744663e+000 7.730092e+001 -1.088680e+001 -8.441283e+001 -5.683184e+001 -1.209771e+002 -4.463375e+001 7.744801e+001
7026100000 -6.366165e+000 6.858954e+001 -1.121801e+001 -1.052337e+002 -6.002855e+001 -1.293320e+002 -5.331388e+001 1.008791e+002
7116050000 -6.082466e+000 5.939005e+001 -1.108324e+001 -1.296740e+002 -6.001411e+001 -1.450240e+002 -4.733523e+001 7.604297e+001
7206000000 -5.899337e+000 5.096306e+001 -1.108831e+001 -1.508688e+002 -5.661733e+001 -1.748183e+002 -5.060525e+001 1.505431e+002
7295950000 -5.590909e+000 4.154209e+001 -1.158786e+001 -1.753052e+002 -5.845424e+001 1.671924e+002 -5.179213e+001 1.008074e+002
7385900000 -5.251234e+000 3.059809e+001 -1.137494e+001 1.602709e+002 -5.770243e+001 1.487262e+002 -4.367795e+001 1.734172e+002
7475850000 -4.861549e+000 2.162595e+001 -1.146460e+001 1.396036e+002 -5.806655e+001 1.421459e+002 -4.819949e+001 -1.667914e+002
7565800000 -5.155560e+000 1.197711e+001 -1.214900e+001 1.155257e+002 -5.547602e+001 1.186751e+002 -3.999705e+001 -1.777369e+002
7655750000 -4.851990e+000 8.399286e-001 -1.209442e+001 9.333681e+001 -5.924567e+001 7.613750e+001 -4.009743e+001 -1.713205e+002
7745700000 -4.498485e+000 -7.454766e+000 -1.256723e+001 7.039075e+001 -5.786116e+001 6.702815e+001 -3.774188e+001 -1.753669e+002
7835650000 -4.666590e+000 -1.830233e+001 -1.250377e+001 4.327259e+001 -5.915118e+001 1.114156e+001 -3.636182e+001 -1.735858e+002
7925600000 -4.356568e+000 -2.559267e+001 -1.250050e+001 2.403233e+001 -5.893405e+001 1.302834e+001 -3.456099e+001 -1.779502e+002
8015550000 -4.508634e+000 -3.447323e+001 -1.277406e+001 -5.118827e-001 -5.974359e+001 4.579111e+000 -3.367381e+001 -1.766618e+002
8105500000 -4.782660e+000 -4.515490e+001 -1.376661e+001 -2.340297e+001 -5.678542e+001 -1.739490e+001 -3.256733e+001 1.796828e+002
8195450000 -4.291178e+000 -5.187989e+001 -1.359680e+001 -4.692442e+001 -6.038422e+001 -5.028667e+001 -3.087037e+001 -1.785089e+002
8285400000 -4.343164e+000 -6.020314e+001 -1.364752e+001 -6.958655e+001 -5.815371e+001 -6.889715e+001 -3.040579e+001 1.732467e+002
8375350000 -3.985989e+000 -6.889281e+001 -1.482828e+001 -9.376768e+001 -5.827991e+001 -8.541005e+001 -2.897241e+001 1.731853e+002
8465300000 -4.281231e+000 -7.843801e+001 -1.513770e+001 -1.197312e+002 -5.796863e+001 -1.237533e+002 -2.880807e+001 1.660685e+002
8555250000 -3.978230e+000 -8.644447e+001 -1.558257e+001 -1.376721e+002 -6.016303e+001 -1.180006e+002 -2.749572e+001 1.648852e+002
8645200000 -4.166582e+000 -9.242802e+001 -1.485478e+001 -1.603540e+002 -5.917881e+001 -1.425904e+002 -2.760532e+001 1.586380e+002
8735150000 -3.636665e+000 -1.010264e+002 -1.584555e+001 1.795517e+002 -5.619954e+001 1.793777e+002 -2.648177e+001 1.557865e+002
8825100000 -3.694489e+000 -1.122736e+002 -1.596656e+001 1.595599e+002 -5.989220e+001 1.540351e+002 -2.674062e+001 1.520395e+002
8915050000 -3.471648e+000 -1.180032e+002 -1.581058e+001 1.351440e+002 -6.011026e+001 1.568249e+002 -2.585655e+001 1.468744e+002
9005000000 -3.687209e+000 -1.252716e+002 -1.645221e+001 1.152254e+002 -5.711333e+001 1.377122e+002 -2.617964e+001 1.451082e+002
9094950000 -3.341522e+000 -1.350373e+002 -1.673254e+001 9.246040e+001 -5.767328e+001 8.648074e+001 -2.558358e+001 1.385433e+002
9184900000 -3.349984e+000 -1.431302e+002 -1.734532e+001 6.878973e+001 -6.080799e+001 1.037409e+002 -2.576126e+001 1.380904e+002
9274850000 -2.942482e+000 -1.507727e+002 -1.780034e+001 4.620398e+001 -6.121836e+001 7.916895e+001 -2.538765e+001 1.322779e+002
9364800000 -2.978275e+000 -1.585259e+002 -1.732945e+001 2.231635e+001 -5.844895e+001 3.611793e+001 -2.532996e+001 1.322401e+002
9454750000 -2.802160e+000 -1.653306e+002 -1.809840e+001 5.294684e+000 -6.777497e+001 5.156540e+001 -2.516802e+001 1.265953e+002
9544700000 -2.920218e+000 -1.757994e+002 -1.851179e+001 -2.098934e+001 -5.993956e+001 6.957605e+000 -2.498572e+001 1.263193e+002
9634650000 -2.929461e+000 1.786721e+002 -1.852339e+001 -4.968927e+001 -6.057177e+001 -3.702879e+000 -2.511615e+001 1.216833e+002
9724600000 -2.382073e+000 1.682735e+002 -1.834946e+001 -6.766110e+001 -6.141582e+001 -3.163478e+001 -2.491718e+001 1.226122e+002
9814550000 -2.714226e+000 1.612912e+002 -1.967662e+001 -8.415577e+001 -5.880991e+001 -3.542370e+001 -2.516586e+001 1.166877e+002
9904500000 -2.780360e+000 1.551780e+002 -1.948664e+001 -1.142400e+002 -5.899340e+001 -8.694116e+001 -2.507094e+001 1.190113e+002
9994450000 -2.800765e+000 1.470015e+002 -1.981363e+001 -1.274736e+002 -5.931053e+001 -8.338776e+001 -2.553920e+001 1.155217e+002
10084400000 -2.322897e+000 1.376431e+002 -1.991415e+001 -1.570143e+002 -6.182796e+001 -1.369258e+002 -2.505137e+001 1.144176e+002
10174350000 -2.629203e+000 1.301004e+002 -2.229380e+001 -1.785902e+002 -6.031715e+001 -1.377767e+002 -2.571016e+001 1.145199e+002
10264300000 -2.618635e+000 1.238975e+002 -2.242073e+001 1.581507e+002 -6.039591e+001 -1.416184e+002 -2.493436e+001 1.130044e+002
10354250000 -2.647598e+000 1.172151e+002 -2.465322e+001 1.339461e+002 -6.630001e+001 1.297671e+002 -2.577305e+001 1.157598e+002
10444200000 -2.442984e+000 1.096713e+002 -2.250765e+001 1.212760e+002 -6.317333e+001 1.756542e+002 -2.498350e+001 1.094167e+002
10534150000 -2.538082e+000 1.011822e+002 -2.388382e+001 9.518393e+001 -6.375018e+001 1.396957e+002 -2.544459e+001 1.147933e+002
10624100000 -2.610448e+000 9.535518e+001 -2.394384e+001 8.209789e+001 -6.102139e+001 1.191101e+002 -2.506269e+001 1.079277e+002
10714050000 -2.593644e+000 8.815567e+001 -2.406288e+001 5.351732e+001 -5.939702e+001 8.995645e+001 -2.503396e+001 1.123064e+002
10804000000 -2.423807e+000 8.153177e+001 -2.382051e+001 3.589499e+001 -6.001914e+001 6.791472e+001 -2.524517e+001 1.058099e+002
10893950000 -2.582293e+000 7.213921e+001 -2.564673e+001 1.431679e+001 -6.405224e+001 8.721922e+001 -2.479272e+001 1.100947e+002
10983900000 -2.523493e+000 6.517864e+001 -2.499206e+001 -1.765566e+000 -6.352949e+001 5.099010e+001 -2.538678e+001 1.052142e+002
11073850000 -2.263831e+000 5.557191e+001 -2.448817e+001 -3.345429e+001 -6.196609e+001 4.795691e+001 -2.456376e+001 1.082981e+002
11163800000 -2.535913e+000 4.793810e+001 -2.686975e+001 -4.562513e+001 -6.137827e+001 -2.665842e+001 -2.523170e+001 1.046535e+002
11253750000 -2.116998e+000 4.067567e+001 -2.720629e+001 -7.058549e+001 -6.885648e+001 -4.172520e+001 -2.413394e+001 1.043312e+002
11343700000 -2.548092e+000 3.117561e+001 -2.549048e+001 -9.912370e+001 -6.550674e+001 -2.146133e+001 -2.484335e+001 1.043308e+002
11433650000 -2.639404e+000 1.807814e+001 -2.689336e+001 -1.207316e+002 -6.076605e+001 -5.488655e+001 -2.386819e+001 1.008105e+002
11523600000 -2.524393e+000 1.198541e+001 -2.959070e+001 -1.318504e+002 -6.489162e+001 -9.863945e+001 -2.415923e+001 1.024262e+002
11613550000 -2.611531e+000 8.475056e-001 -2.919531e+001 -1.644870e+002 -6.276849e+001 -6.532292e+001 -2.355251e+001 9.554684e+001
11703500000 -2.845219e+000 -9.790512e+000 -2.913419e+001 -1.638693e+002 -5.963095e+001 -1.316240e+002 -2.368917e+001 9.856310e+001
11793450000 -3.237329e+000 -2.163167e+001 -3.816032e+001 9.759403e+001 -6.813422e+001 -1.019505e+002 -2.353915e+001 9.094319e+001
11883400000 -3.372926e+000 -3.083692e+001 -2.972717e+001 1.140284e+002 -9.386821e+001 1.130404e+002 -2.337901e+001 9.455434e+001
11973350000 -4.233871e+000 -4.661704e+001 -3.311051e+001 1.198260e+002 -7.558535e+001 1.737134e+002 -2.381720e+001 8.698646e+001
12063300000 -4.598765e+000 -5.802668e+001 -3.914656e+001 1.171578e+002 -6.814343e+001 -1.489160e+002 -2.342051e+001 8.853090e+001
12153250000 -5.240685e+000 -7.324003e+001 -3.242970e+001 1.062500e+002 -6.418285e+001 -1.764139e+002 -2.404515e+001 8.211037e+001
12243200000 -6.370331e+000 -8.569549e+001 -3.623249e+001 1.340803e+002 -6.324660e+001 9.513959e+001 -2.343303e+001 8.454754e+001
12333150000 -7.195038e+000 -1.005621e+002 -3.408513e+001 8.772061e+001 -6.418420e+001 1.045974e+002 -2.446624e+001 7.758250e+001
12423100000 -7.921046e+000 -1.181273e+002 -3.601598e+001 9.419044e+001 -6.666593e+001 1.132150e+002 -2.356485e+001 7.683176e+001
12513050000 -8.791907e+000 -1.370709e+002 -3.364994e+001 7.867281e+001 -6.120489e+001 7.831934e+001 -2.492734e+001 7.515136e+001
12603000000 -1.005595e+001 -1.575053e+002 -3.247588e+001 5.394807e+001 -6.139743e+001 5.339502e+001 -2.406332e+001 7.060422e+001
12692950000 -1.153275e+001 -1.793942e+002 -2.741924e+001 2.507055e+001 -6.212136e+001 -3.165250e+001 -2.574536e+001 7.129805e+001
12782900000 -1.266101e+001 1.562701e+002 -3.014589e+001 7.777112e+000 -6.696670e+001 1.553035e+002 -2.510273e+001 6.249723e+001
12872850000 -1.240554e+001 1.193125e+002 -2.875798e+001 -2.334916e+001 -6.114745e+001 5.569092e+001 -2.628992e+001 6.718710e+001
12962800000 -1.195972e+001 8.971196e+001 -2.942307e+001 -6.226984e+001 -5.996957e+001 3.300584e+001 -2.658644e+001 5.861346e+001
13052750000 -1.146939e+001 6.181691e+001 -2.858752e+001 -6.154617e+001 -6.848244e+001 2.467503e+000 -2.784233e+001 6.665129e+001
13142700000 -9.922238e+000 3.711676e+001 -3.072677e+001 -1.304386e+002 -6.361064e+001 1.677880e+001 -2.827808e+001 5.650420e+001
13232650000 -9.056293e+000 1.760313e+001 -2.911341e+001 -1.297617e+002 -6.096697e+001 -2.797199e+001 -2.904236e+001 6.693873e+001
13322600000 -8.101664e+000 -2.056414e+000 -2.909103e+001 -1.434526e+002 -6.213726e+001 -5.176851e+001 -3.034801e+001 5.730952e+001
13412550000 -7.135029e+000 -1.573360e+001 -2.696285e+001 -1.691732e+002 -5.557473e+001 -5.920630e+001 -2.981899e+001 7.118670e+001
13502500000 -7.086093e+000 -3.130485e+001 -2.674367e+001 1.486780e+002 -5.980907e+001 -1.115841e+002 -3.268068e+001 6.453789e+001
