Freq	S11	S11ang	S21	S21ang	S12	S12ang	S22	S22ang				
10000000	9.78E-01	-7.20E+00	1.03E+01	-3.67E+01	-1.52E+01	-3.41E+01	3.14E+01	9.92E+01				
99950000	3.79E-01	-8.49E+01	1.23E+00	1.78E+02	-2.76E+01	-2.53E+01	1.85E+01	1.55E+02				
189900000	-9.86E-01	-1.51E+02	-2.60E+00	-1.37E+02	-3.05E+01	-9.48E+01	2.05E+01	1.57E+02				
279850000	-1.57E+00	1.64E+02	-1.09E+00	-1.26E+02	-4.30E+01	-2.57E+01	2.06E+01	1.57E+02				
369800000	-1.73E+00	1.30E+02	-1.01E+01	-4.65E+01	-3.39E+01	-3.49E+01	2.06E+01	1.54E+02				
459750000	-1.98E+00	9.75E+01	1.63E-02	6.78E+01	-5.32E+01	-3.07E+01	2.01E+01	1.56E+02				
549700000	-2.06E+00	7.26E+01	7.63E+00	-5.34E+00	-4.06E+01	1.43E+02	1.93E+01	1.56E+02				
639650000	-3.06E+00	4.99E+01	1.36E+01	-6.76E+01	-3.22E+01	-8.53E+01	2.02E+01	1.57E+02				
729600000	-3.92E+00	3.06E+01	1.89E+01	-1.26E+02	-3.57E+01	1.50E+02	2.06E+01	1.55E+02				
819550000	-5.10E+00	1.01E+01	2.15E+01	1.78E+02	-4.93E+01	2.28E+01	2.09E+01	1.53E+02				
909500000	-6.11E+00	-1.58E+00	2.34E+01	1.26E+02	-4.35E+01	-4.22E+01	2.02E+01	1.44E+02				
999450000	-6.84E+00	-7.32E+00	2.49E+01	8.11E+01	-3.65E+01	-6.04E+01	2.06E+01	1.43E+02				
1089400000	-7.59E+00	-1.96E+01	2.59E+01	3.63E+01	-4.21E+01	-3.38E+01	2.10E+01	1.36E+02				
1179350000	-8.33E+00	-2.48E+01	2.62E+01	-6.21E+00	-4.63E+01	9.67E+01	2.11E+01	1.38E+02				
1269300000	-8.68E+00	-2.85E+01	2.66E+01	-4.36E+01	-4.12E+01	1.19E+02	2.12E+01	1.38E+02				
1359250000	-8.76E+00	-3.81E+01	2.68E+01	-8.05E+01	-3.91E+01	-1.40E+02	2.12E+01	1.37E+02				
1449200000	-9.22E+00	-4.20E+01	2.70E+01	-1.16E+02	-4.07E+01	-6.28E+00	2.13E+01	1.36E+02				
1539150000	-9.53E+00	-4.72E+01	2.70E+01	-1.51E+02	-4.28E+01	9.28E+01	2.16E+01	1.36E+02				
1629100000	-9.56E+00	-5.05E+01	2.71E+01	1.76E+02	-5.02E+01	3.82E+01	2.12E+01	1.31E+02				
1719050000	-9.49E+00	-5.99E+01	2.72E+01	1.45E+02	-4.26E+01	2.80E+01	2.17E+01	1.32E+02				
1809000000	-9.30E+00	-6.71E+01	2.73E+01	1.13E+02	-3.73E+01	1.46E+02	2.18E+01	1.30E+02				
1898950000	-9.67E+00	-7.23E+01	2.72E+01	8.39E+01	-4.47E+01	-1.64E+02	2.23E+01	1.29E+02				
1988900000	-9.88E+00	-7.55E+01	2.74E+01	5.19E+01	-3.50E+01	2.80E+01	2.20E+01	1.29E+02				
2078850000	-9.78E+00	-8.33E+01	2.73E+01	2.25E+01	-4.58E+01	-1.23E+02	2.30E+01	1.26E+02				
2168800000	-1.01E+01	-9.02E+01	2.72E+01	-7.76E+00	-3.57E+01	1.09E+02	2.24E+01	1.29E+02				
2258750000	-9.78E+00	-9.61E+01	2.75E+01	-3.58E+01	-3.62E+01	-1.43E+02	2.33E+01	1.27E+02				
2348700000	-9.99E+00	-1.00E+02	2.76E+01	-6.59E+01	-3.58E+01	9.10E+00	2.31E+01	1.28E+02				
2438650000	-9.83E+00	-1.06E+02	2.77E+01	-9.25E+01	-4.56E+01	-1.77E+02	2.30E+01	1.26E+02				
2528600000	-1.06E+01	-1.07E+02	2.80E+01	-1.24E+02	-3.86E+01	1.39E+02	2.43E+01	1.30E+02				
2618550000	-1.07E+01	-1.17E+02	2.78E+01	-1.49E+02	-4.94E+01	-1.34E+02	2.44E+01	1.23E+02				
2708500000	-1.07E+01	-1.22E+02	2.76E+01	1.80E+02	-4.10E+01	1.66E+02	2.48E+01	1.23E+02				
2798450000	-1.10E+01	-1.27E+02	2.77E+01	1.51E+02	-3.37E+01	4.66E+00	2.53E+01	1.19E+02				
2888400000	-1.14E+01	-1.31E+02	2.77E+01	1.24E+02	-4.01E+01	5.86E+01	2.58E+01	1.20E+02				
2978350000	-1.07E+01	-1.40E+02	2.77E+01	9.57E+01	-3.97E+01	-1.23E+02	2.60E+01	1.14E+02				
3068300000	-1.12E+01	-1.41E+02	2.79E+01	6.77E+01	-4.42E+01	-7.40E+00	2.63E+01	1.14E+02				
3158250000	-1.13E+01	-1.48E+02	2.75E+01	3.93E+01	-3.88E+01	-1.22E+02	2.58E+01	1.10E+02				
3248200000	-1.13E+01	-1.55E+02	2.78E+01	1.19E+01	-3.31E+01	1.71E+01	2.67E+01	1.08E+02				
3338150000	-1.16E+01	-1.58E+02	2.78E+01	-1.49E+01	-4.40E+01	-1.59E+02	2.66E+01	1.07E+02				
3428100000	-1.17E+01	-1.63E+02	2.78E+01	-4.34E+01	-4.16E+01	-6.19E+01	2.74E+01	1.01E+02				
3518050000	-1.23E+01	-1.70E+02	2.76E+01	-7.17E+01	-4.13E+01	-1.03E+02	2.73E+01	1.07E+02				
3608000000	-1.25E+01	-1.74E+02	2.77E+01	-9.72E+01	-3.61E+01	4.72E+01	2.79E+01	9.67E+01				
3697950000	-1.26E+01	1.78E+02	2.77E+01	-1.25E+02	-3.44E+01	-5.71E+01	2.77E+01	9.87E+01				
3787900000	-1.17E+01	1.72E+02	2.77E+01	-1.54E+02	-4.52E+01	-6.57E+00	2.81E+01	8.95E+01				
3877850000	-1.27E+01	1.69E+02	2.75E+01	-1.79E+02	-4.17E+01	-1.53E+02	2.82E+01	9.10E+01				
3967800000	-1.22E+01	1.66E+02	2.74E+01	1.54E+02	-5.02E+01	-7.33E+01	2.82E+01	8.79E+01				
4057750000	-1.35E+01	1.55E+02	2.76E+01	1.26E+02	-3.65E+01	-3.74E+01	3.03E+01	8.45E+01				
4147700000	-1.30E+01	1.51E+02	2.77E+01	9.91E+01	-3.61E+01	-6.79E+01	3.05E+01	7.94E+01				
4237650000	-1.41E+01	1.46E+02	2.74E+01	7.20E+01	-4.19E+01	1.23E+02	2.95E+01	7.30E+01				
4327600000	-1.31E+01	1.40E+02	2.76E+01	4.55E+01	-4.85E+01	1.39E+02	2.97E+01	6.68E+01				
4417550000	-1.46E+01	1.33E+02	2.76E+01	1.82E+01	-4.18E+01	7.64E+01	2.94E+01	6.40E+01				
4507500000	-1.50E+01	1.33E+02	2.76E+01	-8.05E+00	-4.62E+01	-1.74E+02	2.95E+01	6.25E+01				
4597450000	-1.53E+01	1.25E+02	2.77E+01	-3.50E+01	-4.93E+01	1.58E+02	2.94E+01	5.71E+01				
4687400000	-1.64E+01	1.24E+02	2.77E+01	-6.31E+01	-4.10E+01	1.51E+01	2.91E+01	5.66E+01				
4777350000	-1.65E+01	1.17E+02	2.80E+01	-8.97E+01	-4.41E+01	1.20E+02	2.89E+01	4.92E+01				
4867300000	-1.69E+01	1.15E+02	2.79E+01	-1.16E+02	-4.44E+01	-2.62E+01	2.82E+01	4.86E+01				
4957250000	-1.84E+01	1.07E+02	2.79E+01	-1.43E+02	-4.04E+01	1.54E+02	2.81E+01	4.90E+01				
5047200000	-2.00E+01	1.10E+02	2.78E+01	-1.70E+02	-4.15E+01	4.27E+01	2.67E+01	4.31E+01				
5137150000	-1.93E+01	1.01E+02	2.78E+01	1.62E+02	-4.16E+01	1.52E+02	2.72E+01	4.25E+01				
5227100000	-1.93E+01	1.09E+02	2.78E+01	1.36E+02	-5.30E+01	7.42E+01	2.54E+01	4.11E+01				
5317050000	-2.06E+01	1.04E+02	2.79E+01	1.10E+02	-3.94E+01	-7.50E+01	2.56E+01	3.74E+01				
5407000000	-2.18E+01	9.76E+01	2.74E+01	8.17E+01	-5.00E+01	-6.77E+01	2.39E+01	4.10E+01				
5496950000	-2.44E+01	1.17E+02	2.77E+01	5.52E+01	-4.57E+01	1.36E+02	2.42E+01	3.52E+01				
5586900000	-2.27E+01	1.11E+02	2.77E+01	2.79E+01	-3.84E+01	1.72E+02	2.24E+01	4.18E+01				
5676850000	-2.45E+01	1.28E+02	2.76E+01	2.19E+00	-4.50E+01	-3.86E+01	2.25E+01	3.79E+01				
5766800000	-2.23E+01	1.19E+02	2.76E+01	-2.48E+01	-3.86E+01	7.25E+01	2.24E+01	4.56E+01				
5856750000	-2.17E+01	1.42E+02	2.75E+01	-5.30E+01	-4.33E+01	4.66E+01	2.11E+01	4.49E+01				
5946700000	-2.27E+01	1.38E+02	2.76E+01	-7.85E+01	-3.92E+01	1.58E+02	2.23E+01	5.37E+01				
6036650000	-2.07E+01	1.39E+02	2.75E+01	-1.04E+02	-4.80E+01	1.58E+02	2.05E+01	5.50E+01				
6126600000	-2.00E+01	1.29E+02	2.77E+01	-1.32E+02	-4.67E+01	5.79E+01	1.92E+01	5.10E+01				
6216550000	-2.02E+01	1.40E+02	2.77E+01	-1.58E+02	-4.33E+01	1.42E+02	2.03E+01	5.29E+01				
6306500000	-1.94E+01	1.36E+02	2.77E+01	1.74E+02	-5.39E+01	-1.12E+02	2.06E+01	6.14E+01				
6396450000	-1.89E+01	1.40E+02	2.80E+01	1.48E+02	-3.87E+01	4.85E+01	1.98E+01	5.94E+01				
6486400000	-1.87E+01	1.25E+02	2.80E+01	1.21E+02	-3.65E+01	5.82E+01	1.91E+01	5.14E+01				
6576350000	-1.85E+01	1.39E+02	2.79E+01	9.42E+01	-5.36E+01	-1.54E+02	2.09E+01	6.58E+01				
6666300000	-1.72E+01	1.36E+02	2.80E+01	6.82E+01	-4.69E+01	1.12E+01	1.70E+01	5.93E+01				
6756250000	-1.71E+01	1.32E+02	2.81E+01	4.06E+01	-3.57E+01	-1.28E+02	1.96E+01	5.94E+01				
6846200000	-1.69E+01	1.28E+02	2.79E+01	1.22E+01	-4.27E+01	-5.17E+01	1.50E+01	5.37E+01				
6936150000	-1.54E+01	1.28E+02	2.80E+01	-1.57E+01	-5.23E+01	3.63E+01	1.78E+01	4.78E+01				
7026100000	-1.48E+01	1.22E+02	2.77E+01	-4.36E+01	-3.85E+01	1.39E+02	1.43E+01	5.91E+01				
7116050000	-1.57E+01	1.17E+02	2.79E+01	-6.91E+01	-4.23E+01	3.74E+01	1.36E+01	4.46E+01				
7206000000	-1.48E+01	1.14E+02	2.78E+01	-9.81E+01	-4.44E+01	-3.64E+01	9.47E+00	8.34E+01				
7295950000	-1.45E+01	1.16E+02	2.77E+01	-1.23E+02	-4.11E+01	1.07E+02	4.82E+00	2.26E+01				
7385900000	-1.32E+01	1.12E+02	2.78E+01	-1.53E+02	-4.75E+01	-1.05E+02	1.12E+01	1.44E+02				
7475850000	-1.34E+01	1.07E+02	2.78E+01	-1.79E+02	-4.53E+01	-1.22E+02	9.79E+00	-1.37E+02				
7565800000	-1.28E+01	1.03E+02	2.78E+01	1.52E+02	-4.99E+01	-4.98E+01	1.51E+01	-1.71E+02				
7655750000	-1.28E+01	9.79E+01	2.78E+01	1.27E+02	-4.08E+01	-1.32E+02	1.77E+01	-1.51E+02				
7745700000	-1.26E+01	9.57E+01	2.76E+01	9.85E+01	-4.26E+01	1.74E+02	2.13E+01	-1.63E+02				
7835650000	-1.20E+01	9.18E+01	2.76E+01	7.17E+01	-3.38E+01	-2.32E+01	2.23E+01	-1.55E+02				
7925600000	-1.14E+01	8.87E+01	2.76E+01	4.40E+01	-3.56E+01	1.35E+02	2.45E+01	-1.71E+02				
8015550000	-1.15E+01	8.30E+01	2.74E+01	1.63E+01	-4.17E+01	-3.69E+01	2.62E+01	-1.64E+02				
8105500000	-1.11E+01	8.29E+01	2.73E+01	-1.06E+01	-4.78E+01	8.52E+01	2.72E+01	-1.77E+02				
8195450000	-1.08E+01	7.75E+01	2.72E+01	-3.80E+01	-4.06E+01	6.48E+01	2.90E+01	-1.75E+02				
8285400000	-1.05E+01	7.26E+01	2.72E+01	-6.55E+01	-5.41E+01	-3.51E+01	2.92E+01	1.77E+02				
8375350000	-1.08E+01	6.89E+01	2.71E+01	-9.26E+01	-4.57E+01	-3.47E+01	3.11E+01	1.76E+02				
8465300000	-9.82E+00	6.62E+01	2.69E+01	-1.19E+02	-4.54E+01	3.84E+01	3.06E+01	1.69E+02				
8555250000	-1.02E+01	6.20E+01	2.68E+01	-1.48E+02	-3.95E+01	-1.03E+02	3.24E+01	1.66E+02				
8645200000	-9.63E+00	5.82E+01	2.68E+01	-1.75E+02	-4.42E+01	-1.03E+02	3.19E+01	1.63E+02				
8735150000	-1.00E+01	5.08E+01	2.65E+01	1.58E+02	-4.59E+01	-1.24E+02	3.32E+01	1.56E+02				
8825100000	-9.53E+00	4.92E+01	2.67E+01	1.31E+02	-4.56E+01	-1.42E+02	3.32E+01	1.55E+02				
8915050000	-9.49E+00	4.18E+01	2.64E+01	1.02E+02	-4.99E+01	-5.35E+01	3.41E+01	1.48E+02				
9005000000	-9.35E+00	4.03E+01	2.64E+01	7.31E+01	-3.79E+01	-3.83E+01	3.39E+01	1.49E+02				
9094950000	-9.19E+00	3.83E+01	2.62E+01	4.53E+01	-3.85E+01	-9.91E+01	3.45E+01	1.41E+02				
9184900000	-9.06E+00	3.06E+01	2.59E+01	1.71E+01	-5.49E+01	3.22E+01	3.44E+01	1.42E+02				
9274850000	-8.88E+00	2.90E+01	2.56E+01	-1.08E+01	-4.78E+01	-1.75E+02	3.47E+01	1.32E+02				
9364800000	-8.79E+00	2.27E+01	2.55E+01	-3.82E+01	-5.88E+01	-4.46E+00	3.47E+01	1.35E+02				
9454750000	-8.57E+00	1.92E+01	2.49E+01	-6.53E+01	-4.12E+01	-1.43E+02	3.47E+01	1.26E+02				
9544700000	-8.37E+00	1.19E+01	2.48E+01	-9.18E+01	-4.26E+01	-7.43E+01	3.49E+01	1.28E+02				
9634650000	-8.33E+00	8.59E+00	2.40E+01	-1.19E+02	-4.23E+01	1.03E+02	3.45E+01	1.21E+02				
9724600000	-8.20E+00	5.49E+00	2.38E+01	-1.45E+02	-3.70E+01	3.80E+01	3.50E+01	1.24E+02				
9814550000	-8.59E+00	1.79E+00	2.32E+01	-1.70E+02	-4.19E+01	1.36E+01	3.40E+01	1.20E+02				
9904500000	-8.24E+00	-4.24E+00	2.31E+01	1.64E+02	-4.16E+01	1.67E+02	3.51E+01	1.19E+02				
9994450000	-8.05E+00	-1.03E+01	2.32E+01	1.40E+02	-4.28E+01	-2.09E+01	3.42E+01	1.19E+02				
10084400000	-8.45E+00	-1.54E+01	2.30E+01	1.12E+02	-4.36E+01	1.52E+02	3.48E+01	1.16E+02				
10174350000	-8.40E+00	-1.81E+01	2.31E+01	8.78E+01	-4.12E+01	-3.72E+01	3.42E+01	1.18E+02				
10264300000	-7.59E+00	-2.35E+01	2.32E+01	6.01E+01	-4.27E+01	8.83E+01	3.44E+01	1.12E+02				
10354250000	-7.78E+00	-2.71E+01	2.31E+01	3.51E+01	-3.84E+01	-1.21E+02	3.46E+01	1.17E+02				
10444200000	-7.65E+00	-3.34E+01	2.31E+01	6.27E+00	-3.81E+01	-1.27E+02	3.41E+01	1.09E+02				
10534150000	-7.70E+00	-3.76E+01	2.30E+01	-2.06E+01	-4.30E+01	5.74E+01	3.48E+01	1.15E+02				
10624100000	-6.85E+00	-4.32E+01	2.30E+01	-4.67E+01	-3.45E+01	4.26E+01	3.42E+01	1.10E+02				
10714050000	-6.81E+00	-5.05E+01	2.30E+01	-7.36E+01	-3.77E+01	4.25E+01	3.48E+01	1.15E+02				
10804000000	-6.73E+00	-5.46E+01	2.27E+01	-1.03E+02	-3.83E+01	-8.96E+01	3.41E+01	1.12E+02				
10893950000	-6.31E+00	-6.13E+01	2.27E+01	-1.30E+02	-4.39E+01	-1.76E+02	3.53E+01	1.11E+02				
10983900000	-6.34E+00	-6.88E+01	2.28E+01	-1.57E+02	-5.66E+01	2.67E+01	3.43E+01	1.12E+02				
11073850000	-6.08E+00	-7.57E+01	2.25E+01	1.76E+02	-4.29E+01	1.49E+02	3.56E+01	1.09E+02				
11163800000	-5.77E+00	-8.14E+01	2.21E+01	1.47E+02	-3.38E+01	-1.30E+02	3.49E+01	1.11E+02				
11253750000	-5.63E+00	-8.33E+01	2.21E+01	1.21E+02	-3.85E+01	1.41E+02	3.59E+01	1.05E+02				
11343700000	-5.42E+00	-9.33E+01	2.21E+01	9.13E+01	-3.93E+01	3.18E+01	3.56E+01	1.09E+02				
11433650000	-5.04E+00	-9.89E+01	2.21E+01	6.01E+01	-4.56E+01	1.94E+01	3.60E+01	1.01E+02				
11523600000	-4.88E+00	-1.05E+02	2.14E+01	3.66E+01	-4.32E+01	-1.68E+02	3.61E+01	1.05E+02				
11613550000	-4.17E+00	-1.13E+02	2.14E+01	6.17E+00	-4.90E+01	-2.21E+01	3.61E+01	9.84E+01				
11703500000	-4.65E+00	-1.20E+02	2.09E+01	-1.81E+01	-4.21E+01	-1.28E+02	3.65E+01	1.02E+02				
11793450000	-4.63E+00	-1.26E+02	2.08E+01	-4.72E+01	-4.25E+01	-1.74E+01	3.61E+01	9.49E+01				
11883400000	-4.24E+00	-1.32E+02	2.04E+01	-7.62E+01	-4.00E+01	-5.87E+01	3.70E+01	9.85E+01				
11973350000	-3.50E+00	-1.39E+02	2.05E+01	-1.01E+02	-3.28E+01	-2.31E+01	3.62E+01	9.16E+01				
12063300000	-3.56E+00	-1.51E+02	2.02E+01	-1.28E+02	-3.22E+01	-1.17E+02	3.72E+01	9.20E+01				
12153250000	-3.23E+00	-1.56E+02	1.96E+01	-1.57E+02	-3.72E+01	-3.77E+01	3.61E+01	8.71E+01				
12243200000	-3.76E+00	-1.61E+02	1.95E+01	1.77E+02	-4.14E+01	-9.46E+01	3.73E+01	8.44E+01				
12333150000	-3.19E+00	-1.71E+02	1.91E+01	1.51E+02	-3.77E+01	9.58E+01	3.59E+01	8.23E+01				
12423100000	-3.17E+00	-1.78E+02	1.97E+01	1.24E+02	-5.09E+01	1.32E+02	3.68E+01	7.69E+01				
12513050000	-3.41E+00	1.75E+02	1.83E+01	9.35E+01	-3.81E+01	-1.39E+02	3.54E+01	7.95E+01				
12603000000	-2.44E+00	1.72E+02	1.93E+01	6.51E+01	-4.59E+01	6.57E+01	3.61E+01	6.93E+01				
12692950000	-2.70E+00	1.65E+02	1.87E+01	3.52E+01	-4.54E+01	1.05E+02	3.47E+01	7.68E+01				
12782900000	-2.65E+00	1.59E+02	1.80E+01	1.09E+01	-4.00E+01	-4.35E+01	3.48E+01	6.31E+01				
12872850000	-2.00E+00	1.53E+02	1.82E+01	-2.30E+01	-4.23E+01	3.69E+00	3.44E+01	7.35E+01				
12962800000	-2.42E+00	1.43E+02	1.71E+01	-5.34E+01	-4.10E+01	-1.47E+02	3.36E+01	5.86E+01				
13052750000	-3.02E+00	1.40E+02	1.57E+01	-8.15E+01	-4.74E+01	1.54E+02	3.39E+01	7.26E+01				
13142700000	-2.66E+00	1.31E+02	1.55E+01	-1.09E+02	-3.93E+01	3.46E+01	3.17E+01	5.62E+01				
13232650000	-2.54E+00	1.26E+02	1.44E+01	-1.35E+02	-4.28E+01	1.69E+02	3.30E+01	7.03E+01				
13322600000	-1.96E+00	1.21E+02	1.49E+01	-1.65E+02	-3.86E+01	-1.32E+02	2.90E+01	6.02E+01				
13412550000	-2.62E+00	1.17E+02	1.31E+01	1.65E+02	-3.58E+01	8.69E+01	3.22E+01	6.60E+01				
13502500000	-2.12E+00	1.08E+02	1.34E+01	1.49E+02	-3.70E+01	-2.76E+01	2.68E+01	8.19E+01				
13592450000	-2.35E+00	1.06E+02	1.14E+01	1.24E+02	-5.02E+01	8.81E+01	3.11E+01	6.65E+01				
13682400000	-2.03E+00	1.01E+02	1.13E+01	9.29E+01	-4.36E+01	7.97E+01	2.81E+01	1.04E+02				
13772350000	-1.80E+00	9.25E+01	1.23E+01	7.33E+01	-5.20E+01	3.05E+01	2.92E+01	6.95E+01				
13862300000	-1.71E+00	8.87E+01	1.09E+01	4.65E+01	-3.34E+01	-7.07E+01	3.05E+01	1.11E+02				
13952250000	-1.70E+00	8.38E+01	1.05E+01	1.70E+01	-3.19E+01	-4.11E+01	2.64E+01	7.69E+01				
14042200000	-1.58E+00	7.71E+01	9.74E+00	-5.18E+00	-4.89E+01	-1.11E+02	3.22E+01	1.08E+02				
14132150000	-1.54E+00	7.23E+01	1.01E+01	-3.49E+01	-3.45E+01	1.71E+02	2.50E+01	1.10E+02				
14222100000	-1.70E+00	6.71E+01	8.51E+00	-7.73E+01	-4.40E+01	-6.07E+01	3.28E+01	1.03E+02				
14312050000	-1.47E+00	6.11E+01	5.92E+00	-8.77E+01	-3.47E+01	-1.02E+02	2.83E+01	1.35E+02				
14402000000	-1.37E+00	5.57E+01	4.70E+00	-1.14E+02	-3.52E+01	-6.02E+01	3.25E+01	9.82E+01				
14491950000	-1.19E+00	5.13E+01	4.64E+00	-1.22E+02	-4.41E+01	-1.59E+02	3.16E+01	1.37E+02				
14581900000	-1.28E+00	4.46E+01	6.15E+00	-1.47E+02	-4.02E+01	1.13E+02	3.14E+01	9.43E+01				
14671850000	-1.34E+00	3.95E+01	6.48E+00	-1.71E+02	-4.05E+01	-5.32E+01	3.40E+01	1.32E+02				
14761800000	-9.61E-01	3.48E+01	8.57E+00	1.62E+02	-3.74E+01	-6.69E+01	2.94E+01	9.90E+01				
14851750000	-9.89E-01	2.76E+01	6.25E+00	1.47E+02	-4.45E+01	-1.80E+02	3.51E+01	1.23E+02				
14941700000	-1.16E+00	2.05E+01	5.72E+00	1.27E+02	-3.84E+01	-8.61E+01	2.82E+01	1.19E+02				
15031650000	-1.19E+00	1.64E+01	9.55E+00	1.02E+02	-4.24E+01	1.20E+02	3.54E+01	1.13E+02				
15121600000	-1.51E+00	1.19E+01	1.02E+01	5.61E+01	-4.76E+01	1.11E+02	3.01E+01	1.41E+02				
15211550000	-1.23E+00	7.13E+00	1.07E+01	2.39E+01	-3.65E+01	-6.62E+01	3.45E+01	1.05E+02				
15301500000	-1.30E+00	3.24E+00	1.05E+01	-1.24E+01	-5.22E+01	1.27E+00	3.31E+01	1.45E+02				
15391450000	-1.35E+00	-4.25E+00	9.50E+00	-4.24E+01	-3.64E+01	1.68E+02	3.33E+01	9.98E+01				
15481400000	-9.37E-01	-9.09E+00	8.45E+00	-7.48E+01	-3.88E+01	-1.15E+02	3.55E+01	1.40E+02				
15571350000	-1.17E+00	-1.42E+01	6.98E+00	-1.11E+02	-3.54E+01	1.53E+02	3.10E+01	1.07E+02				
15661300000	-1.35E+00	-1.78E+01	7.36E+00	-1.41E+02	-3.89E+01	1.50E+02	3.64E+01	1.31E+02				
15751250000	-1.17E+00	-2.53E+01	5.26E+00	-1.66E+02	-3.62E+01	1.56E+02	3.06E+01	1.28E+02				
15841200000	-1.30E+00	-2.93E+01	4.62E+00	1.66E+02	-3.63E+01	7.96E+01	3.69E+01	1.23E+02				
15931150000	-1.32E+00	-3.38E+01	2.91E+00	1.45E+02	-3.78E+01	1.00E+02	3.30E+01	1.46E+02				
16021100000	-1.03E+00	-4.05E+01	1.08E+00	9.97E+01	-4.71E+01	-9.26E+01	3.64E+01	1.20E+02				
16111050000	-9.09E-01	-4.49E+01	7.36E-01	7.98E+01	-5.34E+01	-1.19E+02	3.56E+01	1.47E+02				
16201000000	-1.14E+00	-5.19E+01	-3.70E+00	5.66E+01	-3.94E+01	-1.22E+02	3.66E+01	1.18E+02				
16290950000	-1.21E+00	-5.59E+01	-1.94E+00	5.95E+01	-3.91E+01	-5.97E+01	3.78E+01	1.42E+02				
16380900000	-1.17E+00	-6.15E+01	-2.44E+00	4.28E+01	-4.45E+01	1.63E+01	3.64E+01	1.18E+02				
16470850000	-1.01E+00	-6.87E+01	-2.40E+00	-1.91E+00	-4.74E+01	7.86E+01	3.92E+01	1.33E+02				
16560800000	-9.79E-01	-7.44E+01	-1.40E+00	-5.18E+01	-3.86E+01	-1.65E+02	3.66E+01	1.22E+02				
16650750000	-1.09E+00	-7.79E+01	-3.06E+00	-7.42E+01	-3.78E+01	-1.44E+02	4.01E+01	1.25E+02				
16740700000	-8.99E-01	-8.39E+01	-8.91E+00	-8.23E+01	-4.17E+01	-4.13E+01	3.74E+01	1.25E+02				
16830650000	-9.83E-01	-8.97E+01	-8.35E+00	-9.70E+01	-4.08E+01	-9.71E+01	4.03E+01	1.18E+02				
16920600000	-9.15E-01	-9.33E+01	-6.20E+00	-1.01E+02	-3.87E+01	3.84E+01	3.85E+01	1.24E+02				
17010550000	-1.19E+00	-1.00E+02	-6.04E+00	-1.46E+02	-5.39E+01	6.50E+01	4.04E+01	1.12E+02				
17100500000	-8.21E-01	-1.04E+02	-6.30E+00	-1.58E+02	-4.59E+01	1.08E+00	3.92E+01	1.22E+02				
17190450000	-7.87E-01	-1.12E+02	-1.34E+01	1.05E+02	-3.78E+01	6.19E+01	4.04E+01	1.04E+02				
17280400000	-7.94E-01	-1.18E+02	-9.28E+00	1.45E+02	-4.40E+01	-6.35E+01	4.02E+01	1.18E+02				
17370350000	-5.96E-01	-1.24E+02	-3.97E+00	1.36E+02	-4.27E+01	-1.14E+02	3.98E+01	9.85E+01				
17460300000	-4.56E-01	-1.27E+02	-8.30E+00	9.48E+01	-5.68E+01	5.32E+01	4.08E+01	1.11E+02				
17550250000	-7.48E-01	-1.36E+02	-1.83E+01	1.38E+02	-4.02E+01	9.72E+01	3.91E+01	9.58E+01				
17640200000	-6.02E-01	-1.37E+02	-7.80E+00	5.81E+01	-3.63E+01	1.69E+02	4.10E+01	1.04E+02				
17730150000	-7.91E-01	-1.45E+02	-1.16E+01	-2.35E+01	-3.85E+01	5.80E+01	3.83E+01	9.64E+01				
17820100000	-3.82E-01	-1.51E+02	-1.94E+01	1.16E+01	-4.81E+01	-1.64E+02	4.10E+01	9.64E+01				
17910050000	-9.53E-01	-1.57E+02	-7.82E+00	-4.18E+01	-3.68E+01	1.36E+02	3.80E+01	9.97E+01				
18000000000	-6.49E-01	-1.56E+02	-5.75E+00	1.34E+01	-3.35E+01	1.94E+01	4.05E+01	8.91E+01				
