!Agilent Technologies,E8363B,SG43030126,A.07.50.67
!Agilent E8363B: A.07.50.67
!Date: Monday, August 08, 1988 05:10:13
!Correction: S11(Full 2 Port(1,2)) 
!S21(Full 2 Port(1,2)) 
!S12(Full 2 Port(1,2)) 
!S22(Full 2 Port(1,2)) 
!S2P File: Measurements: S11, S21, S12, S22:
# Hz S  dB   R 50
10000000 7.754159e+000 1.689133e+002 -5.479823e+000 -6.056978e+001 -4.579119e+001 -1.320724e+002 -3.673721e-002 1.767716e+002
99950000 4.091556e-001 1.694408e+002 -3.487650e+001 1.003389e+002 -5.718390e+001 6.823871e+001 3.134055e-002 1.713294e+002
189900000 -3.417435e-001 1.675844e+002 -3.601816e+001 5.016825e+001 -7.008708e+001 7.302674e+001 3.919392e-002 1.641862e+002
279850000 -3.356108e-001 1.592623e+002 -3.753661e+001 3.409291e+001 -6.276010e+001 1.620869e+002 1.898314e-002 1.570690e+002
369800000 -3.504287e-001 1.518738e+002 -3.348418e+001 3.292426e+001 -6.616010e+001 -1.250594e+002 -3.021246e-002 1.499684e+002
459750000 -3.213271e-001 1.477738e+002 -3.669361e+001 5.573934e+001 -6.770583e+001 8.313869e+001 -2.434536e-002 1.424778e+002
549700000 -1.069430e-002 1.374021e+002 -3.506139e+001 -6.144183e+001 -6.882262e+001 1.082242e+002 -2.865304e-002 1.353933e+002
639650000 -2.952161e-001 1.337051e+002 -3.978899e+001 -1.305637e+002 -7.904292e+001 1.338973e+002 -4.295292e-002 1.282051e+002
729600000 -1.418306e-001 1.278062e+002 -4.002173e+001 -1.537505e+002 -7.233791e+001 8.085020e+001 -5.464726e-002 1.211078e+002
819550000 -7.516722e-003 1.209321e+002 -3.851714e+001 -1.072164e+002 -7.062981e+001 -1.236703e+002 -7.021333e-002 1.140875e+002
909500000 -2.244638e-001 1.152434e+002 -3.536287e+001 -1.281613e+002 -7.701757e+001 -6.859447e+001 -7.871081e-002 1.072279e+002
999450000 1.999325e-001 1.087245e+002 -3.858544e+001 -1.487491e+001 -6.413065e+001 1.707838e+002 -8.597884e-002 1.000917e+002
1089400000 -8.466814e-002 1.010016e+002 -4.407995e+001 6.912670e+001 -6.663139e+001 1.116942e+002 -6.938241e-002 9.334626e+001
1179350000 -5.628609e-003 9.549703e+001 -4.765830e+001 1.605161e+002 -7.719654e+001 -1.287586e+002 -6.316613e-002 8.629300e+001
1269300000 -3.279217e-001 8.983168e+001 -4.609881e+001 -1.752269e+002 -9.020453e+001 -3.467018e+000 -4.024766e-002 7.958143e+001
1359250000 -1.299390e-001 8.410016e+001 -4.577887e+001 -2.165607e+001 -7.025625e+001 4.780825e+000 -7.070703e-002 7.271439e+001
1449200000 1.647576e-002 7.716272e+001 -4.760465e+001 -1.190429e+002 -8.278844e+001 1.245170e+002 -9.078291e-002 6.603201e+001
1539150000 -1.054639e-001 7.062067e+001 -4.087029e+001 4.067573e+001 -7.243154e+001 1.755958e+002 -6.064336e-002 5.947421e+001
1629100000 -2.565696e-001 6.480622e+001 -4.997545e+001 -1.083703e+002 -7.088701e+001 1.371563e+002 -8.045826e-002 5.297777e+001
1719050000 -3.183849e-001 6.156135e+001 -4.295144e+001 -1.764913e+002 -6.766223e+001 -7.190630e+001 -9.100737e-002 4.598514e+001
1809000000 3.434515e-002 5.525090e+001 -4.445085e+001 4.839764e+001 -6.646375e+001 -3.446247e+001 -9.472400e-002 3.923926e+001
1898950000 -2.975991e-001 4.642683e+001 -3.839859e+001 1.955603e+001 -7.116953e+001 -1.747680e+002 -4.730627e-002 3.262280e+001
1988900000 -6.844389e-002 4.158308e+001 -3.850352e+001 9.060443e+001 -6.950765e+001 -1.198652e+002 -6.649502e-002 2.635212e+001
2078850000 -1.948031e-001 3.625023e+001 -4.088335e+001 7.875421e+001 -7.110595e+001 9.763676e+001 -6.151763e-002 1.970105e+001
2168800000 1.338912e-001 3.068100e+001 -4.013106e+001 1.317857e+002 -6.969080e+001 1.263653e+001 -7.187218e-002 1.276922e+001
2258750000 -4.166433e-001 2.395897e+001 -3.941225e+001 -1.241925e+002 -6.595544e+001 3.609670e+001 -4.604053e-002 6.219298e+000
2348700000 1.377384e-001 1.854970e+001 -5.005564e+001 -4.419426e+001 -6.715301e+001 -8.647683e+001 -1.069395e-001 -5.083068e-002
2438650000 -1.033967e-001 1.449711e+001 -4.670387e+001 -1.585422e+002 -7.172296e+001 -4.857372e+001 -6.362140e-002 -6.840881e+000
2528600000 -1.458147e-002 8.901961e+000 -3.804552e+001 -3.712525e+001 -7.228464e+001 -6.091806e+001 -7.345468e-002 -1.324584e+001
2618550000 -6.689841e-002 1.278532e+000 -5.052939e+001 -1.258771e+002 -6.984435e+001 -9.167395e+001 -7.064070e-002 -1.957246e+001
2708500000 5.081876e-002 -4.069023e+000 -3.381898e+001 -3.450666e+001 -6.924415e+001 9.615804e-001 -1.074487e-001 -2.610919e+001
2798450000 -4.340951e-002 -1.004136e+001 -4.671000e+001 -1.268041e+002 -6.375108e+001 1.313606e+002 -8.632702e-002 -3.301897e+001
2888400000 1.240813e-001 -1.591950e+001 -3.871069e+001 -1.244974e+002 -7.146914e+001 -1.187078e+002 -1.046037e-001 -3.914116e+001
2978350000 -1.339114e-001 -2.143012e+001 -3.571742e+001 1.762990e+002 -6.302180e+001 9.519389e+001 -8.018240e-002 -4.581105e+001
3068300000 -1.701044e-001 -2.769043e+001 -4.571090e+001 6.874046e+001 -7.773531e+001 7.731917e+000 -5.923223e-002 -5.203688e+001
3158250000 4.923050e-002 -3.319962e+001 -3.793615e+001 2.981142e+001 -7.223514e+001 -1.657799e+002 -8.817275e-002 -5.840998e+001
3248200000 -1.884999e-002 -3.778024e+001 -3.993295e+001 -4.247106e+001 -6.476100e+001 -7.565814e+000 -3.000610e-002 -6.568616e+001
3338150000 -6.472471e-002 -4.632764e+001 -4.997979e+001 7.537666e+001 -6.884221e+001 9.516290e+001 -1.629441e-002 -7.155812e+001
3428100000 4.471722e-002 -5.030710e+001 -3.590789e+001 1.489236e+002 -7.482409e+001 2.746890e+001 2.907617e-002 -7.774789e+001
3518050000 5.419637e-002 -5.518700e+001 -4.232573e+001 6.077583e+001 -6.787073e+001 1.676945e+002 -7.966303e-002 -8.431992e+001
3608000000 1.671710e-001 -6.109560e+001 -3.719417e+001 -1.288972e+002 -7.498297e+001 -1.049299e+002 2.858052e-002 -9.125465e+001
3697950000 9.286072e-002 -6.689406e+001 -4.558367e+001 3.302222e+001 -7.082166e+001 1.261914e+001 -4.064509e-002 -9.778960e+001
3787900000 9.003715e-003 -7.287215e+001 -3.978332e+001 2.563948e+001 -6.275201e+001 -1.296848e+002 3.670332e-002 -1.042846e+002
3877850000 1.096728e-001 -7.936340e+001 -4.235046e+001 -4.767408e+001 -7.765779e+001 8.202197e+000 -1.377027e-002 -1.106208e+002
3967800000 6.128939e-002 -8.409371e+001 -4.221841e+001 -1.232032e+002 -6.284889e+001 1.250096e+002 -3.859835e-002 -1.165070e+002
4057750000 -2.467856e-001 -9.015639e+001 -3.640888e+001 8.128307e+001 -6.728122e+001 -5.666898e+001 -5.452083e-002 -1.246711e+002
4147700000 3.681635e-001 -9.411500e+001 -3.945109e+001 1.444555e+001 -7.625414e+001 -9.537232e+001 -5.281372e-002 -1.294725e+002
4237650000 1.390839e-002 -9.934077e+001 -4.536514e+001 -6.562719e+001 -7.153742e+001 2.476041e+001 -5.835672e-002 -1.371126e+002
4327600000 4.452398e-002 -1.065768e+002 -5.467391e+001 -1.528257e+000 -6.745126e+001 -9.789857e+001 -6.076686e-002 -1.417729e+002
4417550000 4.985812e-002 -1.118644e+002 -4.181914e+001 4.975527e-001 -7.343634e+001 -5.158878e+001 -3.989536e-002 -1.489643e+002
4507500000 2.864250e-001 -1.172598e+002 -5.552855e+001 1.065044e+002 -7.360905e+001 2.937116e+001 -6.484719e-002 -1.554755e+002
4597450000 -3.429216e-002 -1.239396e+002 -6.666451e+001 -7.659595e+001 -7.101727e+001 -9.029269e+001 -8.634320e-002 -1.618437e+002
4687400000 -2.562408e-001 -1.282170e+002 -4.716359e+001 8.264552e+001 -7.128159e+001 4.936441e+001 -1.924306e-001 -1.679955e+002
4777350000 1.003812e-001 -1.341963e+002 -3.792522e+001 -5.985434e+000 -7.320193e+001 -1.463101e+001 -6.534589e-003 -1.749771e+002
4867300000 8.637245e-002 -1.406150e+002 -6.155732e+001 -1.707613e+002 -6.993453e+001 1.656333e+002 -7.235758e-002 1.795539e+002
4957250000 1.471619e-001 -1.469118e+002 -4.343582e+001 1.516542e+002 -7.518491e+001 -9.178589e+001 -5.804076e-002 1.731556e+002
5047200000 1.985567e-002 -1.525063e+002 -4.129063e+001 8.379287e+001 -8.178510e+001 9.638037e+001 -2.655523e-002 1.671111e+002
5137150000 7.660938e-002 -1.594050e+002 -4.822402e+001 -1.217333e+002 -6.661110e+001 -7.430347e+001 -1.026394e-001 1.610667e+002
5227100000 3.561537e-001 -1.614887e+002 -4.091372e+001 -3.614806e+001 -6.812345e+001 4.324928e+001 -1.005423e-001 1.545186e+002
5317050000 1.812146e-001 -1.693831e+002 -4.705597e+001 2.847635e+001 -6.897759e+001 1.831650e+000 -1.287626e-001 1.484138e+002
5407000000 -3.888536e-002 -1.744529e+002 -3.958557e+001 6.423579e+001 -6.931200e+001 1.102081e+002 -3.729402e-002 1.421256e+002
5496950000 -2.143773e-001 1.773632e+002 -4.924863e+001 1.111003e+002 -7.241203e+001 8.786668e+001 -3.884740e-002 1.365713e+002
5586900000 1.573358e-001 1.734968e+002 -4.152310e+001 1.746107e+002 -6.872228e+001 6.069931e+001 -6.330954e-002 1.306799e+002
5676850000 -1.593074e-001 1.666899e+002 -4.129519e+001 -3.853503e+001 -7.005485e+001 -4.073530e+001 -4.013283e-002 1.248621e+002
5766800000 2.726787e-001 1.612465e+002 -3.642342e+001 -1.461749e+002 -7.456143e+001 -5.984171e+001 -1.320712e-001 1.182538e+002
5856750000 -2.101642e-001 1.538806e+002 -3.980874e+001 -9.032611e+001 -8.865313e+001 -1.645618e+001 -1.141817e-001 1.124231e+002
5946700000 -1.500154e-002 1.510176e+002 -4.003338e+001 1.290988e+002 -8.448837e+001 2.013731e+001 -1.201840e-001 1.057120e+002
6036650000 -5.411797e-002 1.434547e+002 -4.549228e+001 -4.114892e+000 -7.185188e+001 2.812061e+001 -1.158316e-001 9.989437e+001
6126600000 -1.986897e-002 1.385197e+002 -5.143662e+001 2.090173e+001 -6.919014e+001 1.332516e+000 -1.498980e-001 9.351971e+001
6216550000 1.477305e-001 1.332806e+002 -4.166904e+001 1.545348e+002 -7.233703e+001 2.737196e+001 -6.072306e-002 8.741278e+001
6306500000 1.792916e-002 1.250907e+002 -3.585363e+001 -1.673007e+002 -7.217963e+001 -6.920738e+000 -1.350729e-001 8.127801e+001
6396450000 -1.572134e-001 1.213630e+002 -5.048089e+001 6.224334e+001 -7.595222e+001 -7.843407e+001 -1.529900e-001 7.462682e+001
6486400000 -3.180969e-001 1.118771e+002 -4.516344e+001 -1.518265e+002 -6.480421e+001 1.698563e+001 -1.415920e-001 6.806599e+001
6576350000 3.599440e-002 1.067641e+002 -5.471869e+001 1.022659e+002 -6.144035e+001 -2.797351e+001 -1.928291e-001 6.088885e+001
6666300000 -1.374196e-001 1.005845e+002 -5.183746e+001 9.080737e+001 -6.207909e+001 -3.905759e+001 -1.461857e-001 5.403907e+001
6756250000 -1.477910e-001 9.239379e+001 -3.936684e+001 6.984731e+001 -6.089951e+001 -1.122581e+001 -1.268421e-001 4.697913e+001
6846200000 2.935179e-002 8.787264e+001 -4.477515e+001 -1.025813e+002 -5.529811e+001 -3.090596e+001 -1.612494e-001 3.883932e+001
6936150000 1.245584e-001 7.743091e+001 -6.022077e+001 1.144103e+002 -5.299225e+001 -3.071786e+001 -1.302287e-001 3.195167e+001
7026100000 7.812909e-002 6.971327e+001 -4.130602e+001 -6.061695e+001 -4.971712e+001 -4.647658e+001 -2.162293e-001 2.194752e+001
7116050000 -7.130204e-002 6.063189e+001 -3.660634e+001 -4.929403e+001 -4.644685e+001 -5.256310e+001 -2.012703e-001 1.291411e+001
7206000000 -1.285870e-001 5.253817e+001 -3.514503e+001 -8.654412e+001 -4.228654e+001 -6.255246e+001 -1.886268e-001 2.773035e+000
7295950000 1.873259e-001 4.165211e+001 -3.832820e+001 -6.341623e+001 -3.751358e+001 -7.479693e+001 -1.883102e-001 -9.492415e+000
7385900000 -7.698574e-002 2.765942e+001 -2.704160e+001 -7.261945e+001 -3.257401e+001 -8.995403e+001 -2.571876e-001 -2.284646e+001
7475850000 -3.615028e-002 1.188977e+001 -2.720960e+001 -1.143712e+002 -2.698295e+001 -1.046971e+002 -1.715941e-001 -3.895477e+001
7565800000 -2.484058e-001 -8.835198e+000 -2.082993e+001 -1.329935e+002 -2.037157e+001 -1.257707e+002 -3.865780e-001 -6.135708e+001
7655750000 -7.696871e-001 -3.872677e+001 -1.257566e+001 -1.604734e+002 -1.262678e+001 -1.571974e+002 -5.862372e-001 -9.318639e+001
7745700000 -3.273557e+000 -9.621899e+001 -4.132792e+000 1.427900e+002 -4.170186e+000 1.424501e+002 -3.141552e+000 -1.496106e+002
7835650000 -2.127683e+001 1.586051e+002 -6.324387e-001 6.269846e+001 -6.473913e-001 6.359513e+001 -1.847446e+001 1.418879e+002
7925600000 -2.003484e+001 -9.970681e+000 -2.922150e-001 5.723618e-001 -4.852755e-001 2.860395e+000 -2.477377e+001 -1.671568e+002
8015550000 -2.476883e+001 -9.626863e+000 -5.007306e-001 -4.962764e+001 -4.073713e-001 -4.927603e+001 -2.561156e+001 8.941935e+001
8105500000 -2.296397e+001 -8.297931e+000 -2.883048e-001 -9.856641e+001 -4.891578e-001 -9.781808e+001 -2.159074e+001 6.163681e+000
8195450000 -2.569939e+001 -5.779009e+001 -3.716698e-001 -1.442166e+002 -4.616783e-001 -1.420238e+002 -3.100670e+001 -3.195058e+001
8285400000 -3.066218e+001 -1.607404e+002 -3.173743e-001 1.722345e+002 -3.858360e-001 1.733071e+002 -2.667249e+001 1.701707e+001
8375350000 -2.472773e+001 8.285191e+001 -2.494408e-001 1.282417e+002 -3.834204e-001 1.290798e+002 -2.308959e+001 4.555790e+000
8465300000 -3.503074e+001 -1.056748e+001 -4.642141e-001 8.342754e+001 -5.389081e-001 8.461568e+001 -4.536938e+001 1.104871e+002
8555250000 -3.641124e+001 -1.316196e+002 -3.710840e-001 3.810802e+001 -3.322580e-001 3.901852e+001 -2.931304e+001 8.728635e+001
8645200000 -2.490311e+001 1.579889e+002 -2.913051e-001 -9.607182e+000 -4.417407e-001 -9.320422e+000 -2.695670e+001 -5.289143e+000
8735150000 -2.188859e+001 -1.528454e+002 -5.559888e-001 -6.214040e+001 -4.951093e-001 -6.099802e+001 -2.467828e+001 -1.390642e+002
8825100000 -1.840668e+001 1.727674e+002 -6.490830e-001 -1.214752e+002 -6.596230e-001 -1.197376e+002 -2.019090e+001 1.493974e+002
8915050000 -8.666005e+000 -9.413409e+001 -1.589532e+000 1.598343e+002 -1.582699e+000 1.612890e+002 -8.711919e+000 -1.412261e+002
9005000000 -1.098944e+000 -1.745389e+002 -9.470786e+000 7.998525e+001 -9.688988e+000 7.917567e+001 -1.074787e+000 1.404631e+002
9094950000 -7.076878e-002 1.454030e+002 -1.851563e+001 3.243419e+001 -1.914726e+001 3.334241e+001 -3.877339e-001 9.764009e+001
9184900000 -3.232669e-001 1.236528e+002 -2.671378e+001 8.587271e+000 -2.749675e+001 1.199364e+001 -2.104075e-001 7.027458e+001
9274850000 -9.215911e-002 1.062220e+002 -3.315921e+001 -2.389666e+000 -3.421924e+001 -9.306407e+000 -3.078979e-001 5.144944e+001
9364800000 1.693701e-001 9.230260e+001 -3.641671e+001 -5.156524e+001 -4.019480e+001 -2.236684e+001 -2.075704e-001 3.533310e+001
9454750000 2.456416e-002 8.066765e+001 -3.667908e+001 -2.152725e+000 -4.462338e+001 -3.524325e+001 -2.698255e-001 2.135992e+001
9544700000 7.059154e-002 7.037202e+001 -3.844298e+001 1.415416e+002 -4.980618e+001 -5.262646e+001 -3.078237e-001 8.526465e+000
9634650000 6.205544e-002 6.138980e+001 -4.604990e+001 6.174606e+001 -5.466389e+001 -6.753062e+001 -2.237795e-001 -2.033183e+000
9724600000 -1.504631e-002 4.975611e+001 -3.734364e+001 1.729501e+002 -5.697153e+001 -5.447060e+001 -2.476752e-001 -1.363455e+001
9814550000 8.030026e-003 4.573960e+001 -3.989740e+001 1.210748e+002 -6.300373e+001 -6.774356e+001 -2.305578e-001 -2.219561e+001
9904500000 7.562302e-002 3.823531e+001 -4.560379e+001 -3.273615e+001 -6.097766e+001 -7.847900e+001 -1.723547e-001 -3.248350e+001
9994450000 -1.566024e-001 3.132335e+001 -3.809205e+001 6.152212e+001 -7.261098e+001 -4.602697e+001 -2.037879e-001 -4.136501e+001
10084400000 -2.912706e-002 2.477892e+001 -3.972468e+001 -6.285934e+001 -6.915708e+001 4.130336e+001 -1.814739e-001 -5.010990e+001
10174350000 -2.115948e-001 1.907174e+001 -4.217389e+001 8.179845e+001 -7.051238e+001 -1.345137e+002 -1.581015e-001 -5.890751e+001
10264300000 -2.687269e-001 1.295623e+001 -4.837650e+001 -1.474212e+002 -6.604241e+001 -1.118774e+002 -2.651844e-001 -6.677675e+001
10354250000 -2.631384e-001 5.106344e+000 -4.866096e+001 -1.181801e+002 -6.926241e+001 -1.129458e+002 -9.073685e-002 -7.555695e+001
10444200000 2.192423e-001 -6.908782e-001 -3.672142e+001 9.525417e+001 -7.534302e+001 -1.459456e+002 -2.948182e-001 -8.338921e+001
10534150000 -3.688005e-001 -8.457540e+000 -4.342620e+001 1.392604e+002 -7.413852e+001 -4.554282e+001 -4.243131e-002 -9.151157e+001
10624100000 -2.149800e-001 -1.125109e+001 -5.688172e+001 1.087833e+002 -6.819354e+001 -1.253953e+002 -1.872048e-001 -9.910632e+001
10714050000 -1.242270e-001 -1.738738e+001 -4.875914e+001 -1.127902e+002 -7.311726e+001 7.228636e+001 -1.175599e-001 -1.070609e+002
10804000000 -8.324144e-002 -2.375597e+001 -3.876459e+001 -1.125890e+002 -6.647366e+001 1.781493e+002 -1.803636e-001 -1.139784e+002
10893950000 -4.719507e-001 -3.024886e+001 -4.847268e+001 -1.501455e+002 -7.046945e+001 -1.059565e+002 -1.544504e-001 -1.223437e+002
10983900000 -2.489948e-001 -3.474758e+001 -4.388351e+001 -1.225660e+002 -7.034711e+001 9.447299e+001 -1.604926e-001 -1.285689e+002
11073850000 9.504981e-002 -4.109177e+001 -3.986198e+001 1.554066e+002 -7.132621e+001 -1.223104e+002 -1.331051e-001 -1.367691e+002
11163800000 -1.939574e-001 -4.607367e+001 -5.606308e+001 1.209686e+002 -7.083662e+001 3.584077e+001 -1.358837e-001 -1.425942e+002
11253750000 4.853803e-002 -5.325611e+001 -3.777615e+001 1.040869e+002 -8.282499e+001 1.325924e+002 -1.223243e-001 -1.502710e+002
11343700000 -1.125937e-002 -5.674163e+001 -3.928421e+001 -2.637807e+001 -7.605817e+001 -9.631271e+000 -9.836907e-002 -1.564831e+002
11433650000 -4.471050e-001 -6.396775e+001 -4.276992e+001 -6.979662e+001 -6.908438e+001 8.596288e+001 -1.530450e-001 -1.634220e+002
11523600000 -3.751960e-001 -6.905376e+001 -4.681901e+001 -4.232990e+001 -6.959458e+001 1.681617e+001 -1.014538e-001 -1.698684e+002
11613550000 -1.004804e-001 -7.648051e+001 -3.829636e+001 -6.443103e+001 -7.375048e+001 -1.778778e+001 -1.307224e-001 -1.764734e+002
11703500000 -3.911230e-002 -8.142027e+001 -5.594345e+001 -1.027909e+000 -6.333581e+001 7.435603e+001 -1.296332e-001 1.771643e+002
11793450000 3.268270e-002 -8.618295e+001 -3.889954e+001 1.038228e+002 -6.840915e+001 6.853952e+001 -1.351844e-001 1.715558e+002
11883400000 1.644312e-001 -8.910925e+001 -4.993636e+001 2.391148e+001 -7.655559e+001 -1.404731e+002 -7.589456e-002 1.653504e+002
11973350000 -1.608152e-001 -9.554934e+001 -4.244653e+001 -1.472464e+002 -7.162885e+001 1.500781e+002 -1.666058e-001 1.595585e+002
12063300000 -3.530391e-001 -1.004579e+002 -3.690231e+001 1.407519e+002 -6.803947e+001 2.111584e+001 -9.758779e-002 1.538528e+002
12153250000 -2.556850e-001 -1.103931e+002 -4.055748e+001 -7.986156e+001 -7.236749e+001 -9.829893e-001 -1.334052e-001 1.478304e+002
12243200000 -2.813160e-001 -1.138257e+002 -4.719025e+001 8.538662e-001 -7.546576e+001 -7.791409e+001 -1.132134e-001 1.425208e+002
12333150000 -3.430564e-001 -1.170605e+002 -3.561518e+001 -1.722651e+002 -6.592455e+001 -1.142837e+002 -1.735336e-001 1.377696e+002
12423100000 1.811540e-001 -1.235572e+002 -3.950783e+001 8.793842e+001 -6.687136e+001 -1.572860e+002 -1.771307e-001 1.307112e+002
12513050000 -1.119408e-002 -1.276265e+002 -3.557329e+001 -1.724978e+002 -7.167791e+001 7.469720e+001 -1.797444e-001 1.268749e+002
12603000000 -6.100715e-002 -1.338087e+002 -3.823603e+001 8.993003e+000 -6.351333e+001 -3.846890e+001 -1.349421e-001 1.196806e+002
12692950000 5.472701e-002 -1.384292e+002 -3.793414e+001 -1.333358e+001 -6.594728e+001 -3.643955e+001 -1.055579e-001 1.161353e+002
12782900000 -1.938225e-001 -1.421163e+002 -3.335393e+001 -3.077533e+001 -6.693685e+001 1.313995e+001 -1.883644e-001 1.093620e+002
12872850000 2.898106e-002 -1.488865e+002 -4.474887e+001 1.005432e+002 -8.723990e+001 -3.972245e+001 -1.641930e-001 1.050606e+002
12962800000 -1.793324e-001 -1.532237e+002 -5.748453e+001 8.973057e+001 -7.186527e+001 3.016195e+001 -1.297380e-001 9.924535e+001
13052750000 -2.853009e-001 -1.598325e+002 -4.257952e+001 -1.235621e+002 -7.440344e+001 -1.191280e+001 -2.277942e-001 9.543066e+001
13142700000 -9.473179e-002 -1.656028e+002 -4.675815e+001 6.431274e+001 -7.343399e+001 -1.664192e+002 -1.654855e-001 8.951597e+001
13232650000 -2.043446e-001 -1.703798e+002 -4.329726e+001 -3.357083e+001 -7.065952e+001 1.473514e+002 -1.957858e-001 8.583846e+001
13322600000 -2.302360e-001 -1.739529e+002 -3.863686e+001 -1.137818e+001 -7.041640e+001 -1.462830e+002 -1.477012e-001 8.003036e+001
13412550000 1.047289e-001 -1.783999e+002 -4.163614e+001 -9.681377e+001 -6.246101e+001 -1.617650e+002 -9.396639e-002 7.655811e+001
13502500000 7.665516e-003 1.779619e+002 -4.872686e+001 -9.652622e+001 -7.543344e+001 -3.847120e+001 -2.165618e-001 7.051827e+001
13592450000 -4.354110e-002 1.708241e+002 -3.758460e+001 3.056638e+001 -6.765456e+001 1.058839e+002 -1.960838e-001 6.670338e+001
13682400000 2.336613e-002 1.682543e+002 -5.038032e+001 -5.537297e+001 -7.754562e+001 8.903667e+001 -2.422285e-001 6.095277e+001
