!Agilent Technologies,E8363B,SG43030126,A.07.50.67
!Agilent E8363B: A.07.50.67
!Date: Monday, August 08, 1988 04:29:27
!Correction: S11(Full 2 Port(1,2)) 
!S21(Full 2 Port(1,2)) 
!S12(Full 2 Port(1,2)) 
!S22(Full 2 Port(1,2)) 
!S2P File: Measurements: S11, S21, S12, S22:
# Hz S  dB   R 50
10000000 -1.072966e+000 -2.779315e+001 -1.576604e+001 -1.322594e+002 -5.176591e+001 1.740466e+000 -2.768680e+001 9.028939e+001
99950000 -1.528575e-001 1.792597e+002 -2.867335e+001 -6.134438e+001 -7.607981e+001 1.487178e+002 -4.006469e+001 1.416364e+002
189900000 -1.663422e+000 1.356454e+002 -1.609297e+001 -9.999271e+001 -5.424290e+001 1.434796e+002 -4.075178e+001 1.516965e+002
279850000 -4.020614e+000 9.590510e+001 -1.338704e+001 -1.486859e+002 -6.360934e+001 5.068820e+001 -4.230147e+001 1.564290e+002
369800000 -6.445751e+000 6.898138e+001 -9.585979e+000 1.681019e+002 -5.763263e+001 -2.725462e+000 -4.108383e+001 1.689993e+002
459750000 -9.801658e+000 4.249983e+001 -8.561649e+000 1.317530e+002 -5.913465e+001 -4.823061e+001 -4.158265e+001 1.615767e+002
549700000 -1.299289e+001 1.980844e+001 -8.314647e+000 9.419051e+001 -5.453209e+001 -6.721059e+001 -4.034354e+001 1.629018e+002
639650000 -1.535532e+001 6.135666e+000 -8.251452e+000 6.790395e+001 -5.388329e+001 -1.027838e+002 -3.974842e+001 1.561604e+002
729600000 -1.816289e+001 -1.311840e+001 -7.856321e+000 3.967839e+001 -5.884838e+001 -1.248599e+002 -3.973172e+001 1.563422e+002
819550000 -1.991680e+001 -4.053267e+001 -7.836525e+000 1.117594e+001 -5.383987e+001 -1.499176e+002 -4.080435e+001 1.569602e+002
909500000 -1.989988e+001 -6.765455e+001 -7.865093e+000 -1.374155e+001 -5.706811e+001 -1.645972e+002 -3.877866e+001 1.505322e+002
999450000 -2.101304e+001 -8.338638e+001 -7.851222e+000 -3.814914e+001 -5.512704e+001 1.522762e+002 -4.017527e+001 1.538945e+002
1089400000 -2.263247e+001 -9.558283e+001 -7.709450e+000 -6.202333e+001 -5.653379e+001 1.331499e+002 -3.891708e+001 1.444572e+002
1179350000 -1.952206e+001 -1.169831e+002 -7.886385e+000 -8.572058e+001 -5.454293e+001 1.135766e+002 -3.898404e+001 1.461553e+002
1269300000 -2.002905e+001 -1.422666e+002 -8.014250e+000 -1.102902e+002 -5.691910e+001 9.876552e+001 -3.794205e+001 1.382738e+002
1359250000 -1.935296e+001 -1.467788e+002 -8.269711e+000 -1.353802e+002 -5.577699e+001 7.811636e+001 -3.832471e+001 1.408743e+002
1449200000 -1.761639e+001 -1.627142e+002 -7.944410e+000 -1.562742e+002 -5.768586e+001 5.521528e+001 -3.844715e+001 1.364715e+002
1539150000 -1.858826e+001 -1.727719e+002 -8.074182e+000 1.792640e+002 -5.562261e+001 3.297267e+001 -3.767829e+001 1.353449e+002
1629100000 -1.715212e+001 1.760129e+002 -7.917792e+000 1.543707e+002 -5.777358e+001 8.205830e+000 -3.742585e+001 1.304015e+002
1719050000 -1.675990e+001 1.717840e+002 -8.292627e+000 1.316588e+002 -5.843080e+001 -2.232914e+001 -3.756076e+001 1.333615e+002
1809000000 -1.675291e+001 1.650645e+002 -7.980069e+000 1.113046e+002 -5.633652e+001 -2.059805e+001 -3.732122e+001 1.277360e+002
1898950000 -1.723670e+001 1.567455e+002 -8.447134e+000 8.693134e+001 -5.514084e+001 -3.302314e+001 -3.747470e+001 1.246413e+002
1988900000 -1.725211e+001 1.452222e+002 -8.162886e+000 6.412132e+001 -5.637692e+001 -6.893990e+001 -3.720825e+001 1.215475e+002
2078850000 -1.605016e+001 1.353340e+002 -8.126669e+000 4.147615e+001 -5.892321e+001 -1.029943e+002 -3.711670e+001 1.208823e+002
2168800000 -1.625480e+001 1.383166e+002 -8.058875e+000 1.983710e+001 -5.677094e+001 -1.275461e+002 -3.721402e+001 1.249005e+002
2258750000 -1.596570e+001 1.359435e+002 -8.277680e+000 -5.099090e-001 -5.514880e+001 -1.419801e+002 -3.719849e+001 1.208660e+002
2348700000 -1.571666e+001 1.224711e+002 -8.344620e+000 -2.625595e+001 -5.680138e+001 -1.513358e+002 -3.702033e+001 1.179307e+002
2438650000 -1.507079e+001 1.155703e+002 -8.329237e+000 -4.771284e+001 -5.616459e+001 -1.792277e+002 -3.653073e+001 1.178330e+002
2528600000 -1.423959e+001 1.187738e+002 -8.709538e+000 -6.953288e+001 -5.662380e+001 1.344693e+002 -3.547163e+001 1.158581e+002
2618550000 -1.397817e+001 1.107630e+002 -8.432170e+000 -9.449745e+001 -5.515691e+001 1.333075e+002 -3.570967e+001 1.144407e+002
2708500000 -1.332627e+001 1.107810e+002 -8.753046e+000 -1.130830e+002 -5.871337e+001 1.123943e+002 -3.554642e+001 1.114895e+002
2798450000 -1.344101e+001 9.666918e+001 -8.797602e+000 -1.341104e+002 -5.743358e+001 1.142416e+002 -3.526407e+001 1.102319e+002
2888400000 -1.234835e+001 9.712794e+001 -8.869775e+000 -1.599234e+002 -5.575916e+001 8.229633e+001 -3.522898e+001 1.089369e+002
2978350000 -1.145631e+001 8.849662e+001 -8.703976e+000 1.793532e+002 -5.645240e+001 5.874150e+001 -3.437860e+001 1.087370e+002
3068300000 -1.156465e+001 7.920785e+001 -9.165733e+000 1.592885e+002 -5.662124e+001 3.761643e+001 -3.456446e+001 1.062576e+002
3158250000 -1.140743e+001 7.171804e+001 -8.752727e+000 1.380663e+002 -5.495078e+001 1.598756e+001 -3.477254e+001 1.056606e+002
3248200000 -1.102027e+001 6.010787e+001 -8.892772e+000 1.134532e+002 -5.690145e+001 7.868760e+000 -3.411839e+001 9.985110e+001
3338150000 -1.033661e+001 5.356374e+001 -8.823040e+000 9.100477e+001 -5.603864e+001 -2.577692e+001 -3.396631e+001 1.043790e+002
3428100000 -1.004137e+001 5.010662e+001 -8.659090e+000 6.939277e+001 -5.615423e+001 -3.733655e+001 -3.395719e+001 9.786514e+001
3518050000 -1.118542e+001 4.190203e+001 -8.924154e+000 4.877886e+001 -5.670657e+001 -5.884571e+001 -3.358459e+001 1.033873e+002
3608000000 -1.046200e+001 3.131033e+001 -8.828884e+000 2.478373e+001 -5.695924e+001 -8.353489e+001 -3.349287e+001 9.176397e+001
3697950000 -1.019189e+001 2.859558e+001 -9.091366e+000 2.347045e+000 -5.430015e+001 -9.417084e+001 -3.281820e+001 9.511578e+001
3787900000 -1.038902e+001 2.484755e+001 -8.958213e+000 -1.925056e+001 -5.908530e+001 -1.107293e+002 -3.360567e+001 8.866975e+001
3877850000 -1.045270e+001 1.486944e+001 -9.129389e+000 -4.233820e+001 -5.632966e+001 -1.516685e+002 -3.298848e+001 9.003038e+001
3967800000 -1.041752e+001 9.066091e+000 -9.263997e+000 -6.349989e+001 -5.706307e+001 -1.534271e+002 -3.250661e+001 8.594926e+001
4057750000 -1.053912e+001 2.865176e+000 -9.250466e+000 -8.516839e+001 -5.647894e+001 -1.780085e+002 -3.035708e+001 8.466993e+001
4147700000 -9.713396e+000 -3.496029e+000 -9.272084e+000 -1.080498e+002 -5.974078e+001 1.531719e+002 -2.982944e+001 7.679526e+001
4237650000 -9.828332e+000 -6.647710e+000 -9.007953e+000 -1.293261e+002 -5.965059e+001 1.377955e+002 -3.073992e+001 7.573234e+001
4327600000 -9.814761e+000 -1.382065e+001 -9.301998e+000 -1.504807e+002 -5.653844e+001 1.152153e+002 -3.049326e+001 6.267455e+001
4417550000 -9.752487e+000 -2.167130e+001 -9.424129e+000 -1.743755e+002 -5.682299e+001 9.822044e+001 -3.090340e+001 6.644691e+001
4507500000 -9.223516e+000 -3.001538e+001 -9.620005e+000 1.640883e+002 -5.917299e+001 9.714655e+001 -3.097409e+001 6.026604e+001
4597450000 -9.015608e+000 -3.713102e+001 -9.401985e+000 1.399196e+002 -5.608167e+001 3.604915e+001 -3.049080e+001 5.709554e+001
4687400000 -8.837396e+000 -4.425884e+001 -9.719139e+000 1.198596e+002 -6.101433e+001 4.179190e+001 -3.111205e+001 5.549862e+001
4777350000 -8.643203e+000 -5.308603e+001 -9.536671e+000 9.731815e+001 -5.889983e+001 -2.094101e+000 -3.125882e+001 4.916685e+001
4867300000 -8.626858e+000 -6.448139e+001 -9.508404e+000 7.541271e+001 -5.675857e+001 7.594326e+000 -3.211439e+001 4.845255e+001
4957250000 -8.294371e+000 -7.273947e+001 -9.445470e+000 5.346823e+001 -5.637712e+001 -3.523182e+001 -3.164061e+001 4.505523e+001
5047200000 -8.520379e+000 -8.217936e+001 -9.487430e+000 3.293659e+001 -5.785403e+001 -3.907679e+001 -3.349840e+001 4.534428e+001
5137150000 -8.024366e+000 -9.009566e+001 -9.532578e+000 1.002327e+001 -5.522125e+001 -7.165540e+001 -3.265189e+001 3.772503e+001
5227100000 -8.285101e+000 -9.907391e+001 -9.744916e+000 -1.281503e+001 -5.685668e+001 -9.790993e+001 -3.470591e+001 4.297446e+001
5317050000 -8.529773e+000 -1.080717e+002 -9.608041e+000 -3.578278e+001 -5.702922e+001 -1.144781e+002 -3.404029e+001 3.229560e+001
5407000000 -8.122283e+000 -1.210874e+002 -9.564404e+000 -5.752885e+001 -6.024365e+001 -1.312125e+002 -3.574191e+001 4.177595e+001
5496950000 -8.613403e+000 -1.309097e+002 -9.456487e+000 -8.309696e+001 -5.964392e+001 -1.455038e+002 -3.587121e+001 2.500683e+001
5586900000 -8.715372e+000 -1.388325e+002 -9.121688e+000 -1.023509e+002 -6.232598e+001 -1.705773e+002 -3.710924e+001 4.298577e+001
5676850000 -8.350457e+000 -1.486088e+002 -9.308513e+000 -1.285742e+002 -5.827942e+001 1.702362e+002 -3.793057e+001 2.906667e+001
5766800000 -8.152109e+000 -1.554759e+002 -9.372787e+000 -1.468973e+002 -5.841153e+001 1.550505e+002 -3.793398e+001 4.460137e+001
5856750000 -8.556652e+000 -1.664628e+002 -9.318815e+000 -1.738396e+002 -5.824131e+001 1.243977e+002 -4.087383e+001 3.820598e+001
5946700000 -8.551556e+000 -1.761127e+002 -9.874260e+000 1.664091e+002 -5.778229e+001 1.002592e+002 -3.872822e+001 4.310186e+001
6036650000 -8.618810e+000 1.763737e+002 -9.606567e+000 1.446544e+002 -5.573431e+001 1.119528e+002 -4.066547e+001 4.761296e+001
6126600000 -8.286021e+000 1.656615e+002 -9.977982e+000 1.200952e+002 -5.901974e+001 7.685003e+001 -4.037960e+001 4.935297e+001
6216550000 -8.521520e+000 1.584830e+002 -9.846568e+000 9.891778e+001 -5.798412e+001 5.313535e+001 -4.159039e+001 4.615904e+001
6306500000 -8.275150e+000 1.497959e+002 -9.623871e+000 7.522797e+001 -5.681992e+001 2.937557e+001 -3.970142e+001 5.194323e+001
6396450000 -8.167509e+000 1.406833e+002 -9.952823e+000 5.411231e+001 -5.879189e+001 -5.701578e+000 -4.296306e+001 5.714841e+001
6486400000 -7.781754e+000 1.312171e+002 -1.029532e+001 2.984469e+001 -5.666037e+001 -3.117099e+001 -4.261417e+001 5.039161e+001
6576350000 -7.482555e+000 1.223779e+002 -9.954506e+000 7.432901e+000 -6.004922e+001 -4.554293e+001 -4.353825e+001 7.534164e+001
6666300000 -7.131902e+000 1.126133e+002 -1.040923e+001 -1.575845e+001 -5.876535e+001 -5.203389e+001 -4.530033e+001 5.110214e+001
6756250000 -6.627476e+000 1.031474e+002 -1.043511e+001 -3.901809e+001 -6.066212e+001 -7.367005e+001 -4.294432e+001 8.031581e+001
6846200000 -6.729192e+000 9.462709e+001 -1.066035e+001 -5.996631e+001 -6.125436e+001 -9.350240e+001 -4.942806e+001 6.621436e+001
6936150000 -6.339547e+000 8.394391e+001 -1.076796e+001 -8.372328e+001 -5.930908e+001 -1.003517e+002 -4.465646e+001 8.206864e+001
7026100000 -5.784310e+000 7.469859e+001 -1.039797e+001 -1.050291e+002 -5.668023e+001 -1.424954e+002 -5.515657e+001 1.030733e+002
7116050000 -5.805189e+000 6.599979e+001 -1.061054e+001 -1.271421e+002 -6.008610e+001 -1.516162e+002 -4.656062e+001 7.365575e+001
7206000000 -5.572446e+000 5.652300e+001 -1.099439e+001 -1.504293e+002 -5.728318e+001 1.765955e+002 -4.888469e+001 1.489027e+002
7295950000 -5.036147e+000 4.673697e+001 -1.095070e+001 -1.736236e+002 -5.818692e+001 1.575966e+002 -5.354487e+001 9.064725e+001
7385900000 -4.949660e+000 3.458999e+001 -1.077332e+001 1.616375e+002 -5.708519e+001 1.511462e+002 -4.375990e+001 1.713530e+002
7475850000 -4.556589e+000 2.487377e+001 -1.111355e+001 1.380822e+002 -5.877449e+001 1.407781e+002 -4.707959e+001 -1.649468e+002
7565800000 -4.688729e+000 1.452006e+001 -1.127115e+001 1.177853e+002 -5.622580e+001 8.130115e+001 -4.035041e+001 1.772406e+002
7655750000 -4.511049e+000 5.048470e+000 -1.192963e+001 9.454562e+001 -5.826239e+001 9.630463e+001 -4.062804e+001 -1.661175e+002
7745700000 -4.248981e+000 -5.384575e+000 -1.164513e+001 6.762281e+001 -5.550676e+001 5.435408e+001 -3.796741e+001 -1.759908e+002
7835650000 -4.156466e+000 -1.559649e+001 -1.172062e+001 4.536504e+001 -6.013398e+001 3.079594e+001 -3.629618e+001 -1.736091e+002
7925600000 -3.895912e+000 -2.221469e+001 -1.191333e+001 2.111803e+001 -5.739475e+001 3.022854e+001 -3.463530e+001 -1.795236e+002
8015550000 -4.287002e+000 -3.134273e+001 -1.284955e+001 8.797769e-001 -5.718661e+001 -2.078901e+001 -3.357268e+001 -1.761657e+002
8105500000 -4.062474e+000 -4.283314e+001 -1.305724e+001 -2.286103e+001 -5.925499e+001 -3.681742e+001 -3.235007e+001 1.795240e+002
8195450000 -3.849710e+000 -4.855391e+001 -1.344651e+001 -4.819704e+001 -5.958240e+001 -2.011280e+001 -3.085216e+001 -1.795424e+002
8285400000 -3.581803e+000 -5.919265e+001 -1.362302e+001 -7.267410e+001 -5.950909e+001 -7.420097e+001 -3.032587e+001 1.736498e+002
8375350000 -3.488401e+000 -6.562819e+001 -1.351510e+001 -8.941166e+001 -5.822356e+001 -9.463624e+001 -2.909115e+001 1.723011e+002
8465300000 -3.752416e+000 -7.773599e+001 -1.470229e+001 -1.175753e+002 -6.003149e+001 -1.239528e+002 -2.865541e+001 1.655336e+002
8555250000 -3.227852e+000 -8.390153e+001 -1.441467e+001 -1.382391e+002 -6.039933e+001 -1.147824e+002 -2.747005e+001 1.650741e+002
8645200000 -3.417388e+000 -9.120643e+001 -1.495166e+001 -1.601545e+002 -6.134372e+001 -1.430148e+002 -2.743541e+001 1.584780e+002
8735150000 -2.926352e+000 -9.763332e+001 -1.545324e+001 1.768514e+002 -6.466985e+001 -1.465999e+002 -2.642952e+001 1.561545e+002
8825100000 -3.059038e+000 -1.077916e+002 -1.495851e+001 1.520393e+002 -5.936889e+001 1.728591e+002 -2.675443e+001 1.517610e+002
8915050000 -2.870918e+000 -1.139852e+002 -1.572588e+001 1.336278e+002 -6.173195e+001 1.628043e+002 -2.587755e+001 1.470114e+002
9005000000 -3.268223e+000 -1.217275e+002 -1.606627e+001 1.157578e+002 -6.451001e+001 1.461618e+002 -2.623567e+001 1.446577e+002
9094950000 -2.478853e+000 -1.294796e+002 -1.599665e+001 8.890569e+001 -5.868968e+001 1.052994e+002 -2.559933e+001 1.388818e+002
9184900000 -2.838423e+000 -1.377443e+002 -1.691083e+001 7.134005e+001 -6.312599e+001 9.220477e+001 -2.581788e+001 1.378016e+002
9274850000 -2.274817e+000 -1.452034e+002 -1.678838e+001 4.328951e+001 -6.434705e+001 6.872392e+001 -2.542765e+001 1.323437e+002
9364800000 -2.345198e+000 -1.520305e+002 -1.663541e+001 2.589681e+001 -6.037076e+001 4.540142e+001 -2.535231e+001 1.317517e+002
9454750000 -2.132856e+000 -1.585278e+002 -1.766169e+001 1.433562e+000 -5.843577e+001 3.805262e+001 -2.513149e+001 1.261640e+002
9544700000 -2.374461e+000 -1.699777e+002 -1.770842e+001 -2.351386e+001 -6.146759e+001 2.979413e+001 -2.498943e+001 1.268564e+002
9634650000 -2.207987e+000 -1.756851e+002 -1.787411e+001 -3.809958e+001 -6.051126e+001 -1.565090e+001 -2.517679e+001 1.215238e+002
9724600000 -1.925386e+000 1.767660e+002 -1.752820e+001 -6.798422e+001 -6.357770e+001 -2.606159e+001 -2.482048e+001 1.224291e+002
9814550000 -1.988089e+000 1.700342e+002 -1.892704e+001 -8.256145e+001 -6.267310e+001 -4.842886e+001 -2.524051e+001 1.167306e+002
9904500000 -2.377258e+000 1.626401e+002 -1.849574e+001 -1.150011e+002 -5.964709e+001 -5.847077e+001 -2.507281e+001 1.185375e+002
9994450000 -2.316338e+000 1.530555e+002 -1.939722e+001 -1.338390e+002 -6.044592e+001 -8.649626e+001 -2.558235e+001 1.158851e+002
10084400000 -1.931859e+000 1.455860e+002 -1.918580e+001 -1.628934e+002 -6.326721e+001 -9.633840e+001 -2.510652e+001 1.141589e+002
10174350000 -2.152039e+000 1.376235e+002 -2.125140e+001 -1.792221e+002 -6.144290e+001 -1.325647e+002 -2.574793e+001 1.150163e+002
10264300000 -2.103284e+000 1.324145e+002 -2.151744e+001 1.554098e+002 -6.325914e+001 -1.624054e+002 -2.507166e+001 1.122512e+002
10354250000 -2.263930e+000 1.246396e+002 -2.157441e+001 1.411216e+002 -6.069745e+001 -1.580429e+002 -2.568622e+001 1.146070e+002
10444200000 -2.295637e+000 1.178716e+002 -2.138925e+001 1.189501e+002 -6.445905e+001 1.314811e+002 -2.502023e+001 1.100755e+002
10534150000 -2.102466e+000 1.085653e+002 -2.163843e+001 9.141646e+001 -6.274616e+001 1.408394e+002 -2.544878e+001 1.139635e+002
10624100000 -2.253838e+000 1.007473e+002 -2.405791e+001 7.422230e+001 -6.112525e+001 1.379768e+002 -2.512238e+001 1.079798e+002
10714050000 -2.231783e+000 9.442114e+001 -2.415818e+001 5.120782e+001 -6.037321e+001 1.119855e+002 -2.519691e+001 1.118767e+002
10804000000 -2.325358e+000 8.668585e+001 -2.404607e+001 3.879851e+001 -5.904569e+001 7.874308e+001 -2.523779e+001 1.054557e+002
10893950000 -2.437363e+000 7.649780e+001 -2.542537e+001 9.170080e+000 -5.871264e+001 7.709377e+001 -2.493840e+001 1.092757e+002
10983900000 -2.399228e+000 6.917027e+001 -2.589783e+001 -3.886665e+000 -6.788755e+001 7.427906e+001 -2.547730e+001 1.043740e+002
11073850000 -2.152989e+000 6.041853e+001 -2.469314e+001 -3.239664e+001 -6.812418e+001 -3.005901e+001 -2.469977e+001 1.080918e+002
11163800000 -2.582176e+000 5.210913e+001 -2.636106e+001 -5.139494e+001 -7.389608e+001 -5.790241e+000 -2.529351e+001 1.034697e+002
11253750000 -2.267788e+000 4.399660e+001 -2.778528e+001 -7.640247e+001 -6.535146e+001 -3.466235e+001 -2.426072e+001 1.039498e+002
11343700000 -2.614737e+000 3.280093e+001 -2.539989e+001 -9.242846e+001 -6.186783e+001 -1.572682e+001 -2.484335e+001 1.041460e+002
11433650000 -2.808863e+000 2.153686e+001 -2.762945e+001 -1.197206e+002 -6.224028e+001 -5.695332e+001 -2.393177e+001 1.007121e+002
11523600000 -2.718600e+000 1.294652e+001 -2.735230e+001 -1.470149e+002 -7.220451e+001 -5.876210e+001 -2.427609e+001 1.015795e+002
11613550000 -2.847194e+000 2.901882e+000 -2.688449e+001 -1.678482e+002 -5.982785e+001 -1.376946e+002 -2.375046e+001 9.543646e+001
11703500000 -2.973404e+000 -8.219954e+000 -2.965519e+001 -1.711406e+002 -6.285641e+001 -9.814869e+001 -2.386223e+001 9.860034e+001
11793450000 -3.360869e+000 -2.094162e+001 -2.909379e+001 1.572260e+002 -6.932603e+001 -7.029257e+001 -2.359410e+001 9.014236e+001
11883400000 -3.712269e+000 -3.325127e+001 -3.074499e+001 1.796322e+002 -6.139985e+001 -1.412210e+002 -2.341705e+001 9.436624e+001
11973350000 -3.825360e+000 -4.744961e+001 -2.914315e+001 1.391016e+002 -6.131703e+001 -1.652081e+002 -2.394945e+001 8.614917e+001
12063300000 -4.285584e+000 -6.206739e+001 -3.737299e+001 9.308956e+001 -6.656499e+001 1.587190e+002 -2.341674e+001 8.799580e+001
12153250000 -4.489372e+000 -7.863796e+001 -3.914772e+001 1.161305e+002 -6.285003e+001 1.788770e+002 -2.411658e+001 8.180610e+001
12243200000 -5.307715e+000 -9.238137e+001 -3.869709e+001 5.168060e+001 -6.512043e+001 1.433980e+002 -2.346280e+001 8.437343e+001
12333150000 -5.587543e+000 -1.062603e+002 -4.134946e+001 4.261380e+001 -6.545599e+001 1.301529e+002 -2.461717e+001 7.761524e+001
12423100000 -5.792762e+000 -1.255096e+002 -2.969731e+001 5.860726e+001 -6.899104e+001 1.632977e+002 -2.368396e+001 7.626543e+001
12513050000 -6.844191e+000 -1.421189e+002 -3.320126e+001 6.425926e+001 -5.881217e+001 6.541291e+001 -2.511637e+001 7.430719e+001
12603000000 -7.585568e+000 -1.636000e+002 -3.330547e+001 3.457362e+001 -6.318059e+001 6.199000e+001 -2.422743e+001 6.903531e+001
12692950000 -8.730080e+000 1.795549e+002 -3.301154e+001 1.195678e+001 -6.028558e+001 1.232044e+001 -2.593392e+001 7.030073e+001
12782900000 -9.838459e+000 1.581012e+002 -3.259820e+001 -9.238534e+000 -7.048019e+001 -1.053690e+002 -2.521547e+001 6.114976e+001
12872850000 -1.015042e+001 1.337965e+002 -2.578602e+001 -3.159923e+001 -7.171268e+001 -3.410975e+001 -2.641877e+001 6.676483e+001
12962800000 -1.103089e+001 1.073476e+002 -2.556407e+001 -6.718563e+001 -6.467519e+001 9.699202e+001 -2.669135e+001 5.748485e+001
13052750000 -1.116675e+001 7.970747e+001 -2.882667e+001 -9.251027e+001 -6.162119e+001 3.665694e+001 -2.788177e+001 6.512461e+001
13142700000 -1.061460e+001 5.194732e+001 -2.701972e+001 -1.233542e+002 -6.194072e+001 -5.154639e+001 -2.841615e+001 5.527034e+001
13232650000 -1.013068e+001 2.640174e+001 -2.661264e+001 -1.339368e+002 -5.914921e+001 -5.747343e+001 -2.910579e+001 6.639150e+001
13322600000 -9.640644e+000 4.508033e+000 -2.990100e+001 -1.556634e+002 -6.348473e+001 -4.391347e+001 -3.042766e+001 5.655241e+001
13412550000 -8.344648e+000 -1.304838e+001 -2.862265e+001 1.729599e+002 -6.234553e+001 -8.548109e+001 -2.996166e+001 7.121718e+001
13502500000 -7.545475e+000 -3.146657e+001 -2.646275e+001 1.612897e+002 -6.272913e+001 -8.056442e+001 -3.275938e+001 6.543686e+001
13592450000 -6.495405e+000 -4.702152e+001 -2.844633e+001 1.462508e+002 -6.165075e+001 -7.050127e+001 -3.078282e+001 7.838382e+001
13682400000 -5.924186e+000 -6.305346e+001 -2.587095e+001 1.209217e+002 -6.393811e+001 -1.593109e+002 -3.404203e+001 8.241087e+001
